/CLK X,/CLK Y,/out0 X,/out0 Y,/out1 X,/out1 Y,/out2 X,/out2 Y,/out3 X,/out3 Y,/out4 X,/out4 Y,/Vout X,/Vout Y,/Vin X,/Vin Y
0,7.754458560692191e-10,0,0,0,0,0,0,0,0,0,0,0,0,0,0
4e-09,1.799995415844155,4e-09,0,4e-09,0,4e-09,0,4e-09,0,4e-09,0,4e-09,0,4e-09,0.0005555555555579872
8e-09,4.483363103522389e-09,8e-09,0,8e-09,0,8e-09,0,8e-09,0,8e-09,0,8e-09,0,8e-09,0.001111111111119749
1.2e-08,1.799989436615043,1.2e-08,0,1.2e-08,0,1.2e-08,0,1.2e-08,0,1.2e-08,0,1.2e-08,0,1.2e-08,0.001666666666675045
1.6e-08,-0.0002239566574586512,1.6e-08,0,1.6e-08,0,1.6e-08,0,1.6e-08,0,1.6e-08,0,1.6e-08,0,1.6e-08,0.002222222222230669
2e-08,-1.342119646176591e-08,2e-08,0,2e-08,0,2e-08,0,2e-08,0,2e-08,0,2e-08,0,2e-08,0.002777777777777778
2.4e-08,1.799994786096739,2.4e-08,0,2.4e-08,0,2.4e-08,0,2.4e-08,0,2.4e-08,0,2.4e-08,0,2.4e-08,0.0033333333333418
2.8e-08,-2.376418789003205e-09,2.8e-08,0,2.8e-08,0,2.8e-08,0,2.8e-08,0,2.8e-08,0,2.8e-08,0,2.8e-08,0.003888888888897923
3.2e-08,1.799988696298452,3.2e-08,0,3.2e-08,0,3.2e-08,0,3.2e-08,0,3.2e-08,0,3.2e-08,0,3.2e-08,0.004444444444448309
3.6e-08,0.000186088113858006,3.6e-08,0,3.6e-08,0,3.6e-08,0,3.6e-08,0,3.6e-08,0,3.6e-08,0,3.6e-08,0.005000000000008378
4.000000000000001e-08,-1.743700565855691e-08,4.000000000000001e-08,0,4.000000000000001e-08,0,4.000000000000001e-08,0,4.000000000000001e-08,0,4.000000000000001e-08,0,4.000000000000001e-08,0,4.000000000000001e-08,0.005555555555555556
4.400000000000001e-08,1.799994891071663,4.400000000000001e-08,0,4.400000000000001e-08,0,4.400000000000001e-08,0,4.400000000000001e-08,0,4.400000000000001e-08,0,4.400000000000001e-08,0,4.400000000000001e-08,0.006111111111121322
4.800000000000001e-08,-5.077498576717718e-09,4.800000000000001e-08,0,4.800000000000001e-08,0,4.800000000000001e-08,0,4.800000000000001e-08,0,4.800000000000001e-08,0,4.800000000000001e-08,0,4.800000000000001e-08,0.006666666666673274
5.200000000000002e-08,1.799989209105744,5.200000000000002e-08,0,5.200000000000002e-08,0,5.200000000000002e-08,0,5.200000000000002e-08,0,5.200000000000002e-08,0,5.200000000000002e-08,0,5.200000000000002e-08,0.007222222222224669
5.600000000000002e-08,0.0002743315434730029,5.600000000000002e-08,0,5.600000000000002e-08,0,5.600000000000002e-08,0,5.600000000000002e-08,0,5.600000000000002e-08,0,5.600000000000002e-08,0,5.600000000000002e-08,0.007777777777786101
6.000000000000002e-08,-5.19487949981998e-08,6.000000000000002e-08,0,6.000000000000002e-08,0,6.000000000000002e-08,0,6.000000000000002e-08,0,6.000000000000002e-08,0,6.000000000000002e-08,0,6.000000000000002e-08,0.008333333333333333
6.400000000000002e-08,1.799995065962162,6.400000000000002e-08,0,6.400000000000002e-08,0,6.400000000000002e-08,0,6.400000000000002e-08,0,6.400000000000002e-08,0,6.400000000000002e-08,0,6.400000000000002e-08,0.008888888888897219
6.800000000000001e-08,8.954687802719036e-09,6.800000000000001e-08,0,6.800000000000001e-08,0,6.800000000000001e-08,0,6.800000000000001e-08,0,6.800000000000001e-08,0,6.800000000000001e-08,0,6.800000000000001e-08,0.00944444444445482
7.200000000000001e-08,1.799989686205567,7.200000000000001e-08,0,7.200000000000001e-08,0,7.200000000000001e-08,0,7.200000000000001e-08,0,7.200000000000001e-08,0,7.200000000000001e-08,0,7.200000000000001e-08,0.01000000000000672
7.600000000000001e-08,0.0002673545368646371,7.600000000000001e-08,0,7.600000000000001e-08,0,7.600000000000001e-08,0,7.600000000000001e-08,0,7.600000000000001e-08,0,7.600000000000001e-08,0,7.600000000000001e-08,0.01055555555556019
8e-08,6.468088295902859e-08,8e-08,0,8e-08,0,8e-08,0,8e-08,0,8e-08,0,8e-08,0,8e-08,0.01111111111111111
8.4e-08,1.799994836504544,8.4e-08,0,8.4e-08,0,8.4e-08,0,8.4e-08,0,8.4e-08,0,8.4e-08,0,8.4e-08,0.01166666666667192
8.799999999999999e-08,-3.413745305538402e-08,8.799999999999999e-08,0,8.799999999999999e-08,0,8.799999999999999e-08,0,8.799999999999999e-08,0,8.799999999999999e-08,0,8.799999999999999e-08,0,8.799999999999999e-08,0.01222222222223495
9.199999999999999e-08,1.799990727901323,9.199999999999999e-08,0,9.199999999999999e-08,0,9.199999999999999e-08,0,9.199999999999999e-08,0,9.199999999999999e-08,0,9.199999999999999e-08,0,9.199999999999999e-08,0.01277777777777984
9.599999999999999e-08,0.0001374012162341625,9.599999999999999e-08,0,9.599999999999999e-08,0,9.599999999999999e-08,0,9.599999999999999e-08,0,9.599999999999999e-08,0,9.599999999999999e-08,0,9.599999999999999e-08,0.01333333333333694
9.999999999999998e-08,-9.763073572797371e-08,9.999999999999998e-08,0,9.999999999999998e-08,0,9.999999999999998e-08,0,9.999999999999998e-08,0,9.999999999999998e-08,0,9.999999999999998e-08,0,9.999999999999998e-08,0.01388888888888889
1.04e-07,1.799994643614741,1.04e-07,0,1.04e-07,0,1.04e-07,0,1.04e-07,0,1.04e-07,0,1.04e-07,0,1.04e-07,0.01444444444444785
1.08e-07,1.468444636117216e-08,1.08e-07,0,1.08e-07,0,1.08e-07,0,1.08e-07,0,1.08e-07,0,1.08e-07,0,1.08e-07,0.01500000000000855
1.12e-07,1.799989045678545,1.12e-07,0,1.12e-07,0,1.12e-07,0,1.12e-07,0,1.12e-07,0,1.12e-07,0,1.12e-07,0.01555555555556206
1.16e-07,0.0002730742161554357,1.16e-07,0,1.16e-07,0,1.16e-07,0,1.16e-07,0,1.16e-07,0,1.16e-07,0,1.16e-07,0.01611111111111885
1.2e-07,-3.669969773955782e-08,1.2e-07,0,1.2e-07,0,1.2e-07,0,1.2e-07,0,1.2e-07,0,1.2e-07,0,1.2e-07,0.01666666666666667
1.24e-07,1.799995080493362,1.24e-07,0,1.24e-07,0,1.24e-07,0,1.24e-07,0,1.24e-07,0,1.24e-07,0,1.24e-07,0.01722222222222893
1.28e-07,1.310375773603858e-08,1.28e-07,0,1.28e-07,0,1.28e-07,0,1.28e-07,0,1.28e-07,0,1.28e-07,0,1.28e-07,0.01777777777778331
1.32e-07,1.799989449577878,1.32e-07,0,1.32e-07,0,1.32e-07,0,1.32e-07,0,1.32e-07,0,1.32e-07,0,1.32e-07,0.01833333333333931
1.36e-07,0.0002315073061724281,1.36e-07,0,1.36e-07,0,1.36e-07,0,1.36e-07,0,1.36e-07,0,1.36e-07,0,1.36e-07,0.0188888888888905
1.4e-07,7.126605175610761e-08,1.4e-07,0,1.4e-07,0,1.4e-07,0,1.4e-07,0,1.4e-07,0,1.4e-07,0,1.4e-07,0.01944444444444445
1.44e-07,1.799995154690721,1.44e-07,1.8,1.44e-07,0,1.44e-07,0,1.44e-07,0,1.44e-07,0,1.44e-07,0.015625,1.44e-07,0.02000000000000562
1.48e-07,6.04406798361846e-08,1.48e-07,1.8,1.48e-07,0,1.48e-07,0,1.48e-07,0,1.48e-07,0,1.48e-07,0.015625,1.48e-07,0.02055555555555767
1.52e-07,1.799989225806687,1.52e-07,1.8,1.52e-07,0,1.52e-07,0,1.52e-07,0,1.52e-07,0,1.52e-07,0.015625,1.52e-07,0.02111111111111935
1.56e-07,0.0002735908190551759,1.56e-07,1.8,1.56e-07,0,1.56e-07,0,1.56e-07,0,1.56e-07,0,1.56e-07,0.015625,1.56e-07,0.02166666666666797
1.600000000000001e-07,-5.816842063861306e-08,1.600000000000001e-07,1.8,1.600000000000001e-07,0,1.600000000000001e-07,0,1.600000000000001e-07,0,1.600000000000001e-07,0,1.600000000000001e-07,0.015625,1.600000000000001e-07,0.02222222222222222
1.640000000000001e-07,1.799994871337542,1.640000000000001e-07,1.8,1.640000000000001e-07,0,1.640000000000001e-07,0,1.640000000000001e-07,0,1.640000000000001e-07,0,1.640000000000001e-07,0.015625,1.640000000000001e-07,0.02277777777778122
1.680000000000001e-07,2.681852930224247e-08,1.680000000000001e-07,1.8,1.680000000000001e-07,0,1.680000000000001e-07,0,1.680000000000001e-07,0,1.680000000000001e-07,0,1.680000000000001e-07,0.015625,1.680000000000001e-07,0.02333333333334345
1.720000000000001e-07,1.799988385078234,1.720000000000001e-07,1.8,1.720000000000001e-07,0,1.720000000000001e-07,0,1.720000000000001e-07,0,1.720000000000001e-07,0,1.720000000000001e-07,0.015625,1.720000000000001e-07,0.02388888888889943
1.760000000000001e-07,0.0001985577374350522,1.760000000000001e-07,1.8,1.760000000000001e-07,0,1.760000000000001e-07,0,1.760000000000001e-07,0,1.760000000000001e-07,0,1.760000000000001e-07,0.015625,1.760000000000001e-07,0.02444444444445119
1.800000000000001e-07,-8.623492430165095e-09,1.800000000000001e-07,1.8,1.800000000000001e-07,0,1.800000000000001e-07,0,1.800000000000001e-07,0,1.800000000000001e-07,0,1.800000000000001e-07,0.015625,1.800000000000001e-07,0.025
1.840000000000001e-07,1.79999494930013,1.840000000000001e-07,1.8,1.840000000000001e-07,0,1.840000000000001e-07,0,1.840000000000001e-07,0,1.840000000000001e-07,0,1.840000000000001e-07,0.015625,1.840000000000001e-07,0.0255555555555598
1.880000000000001e-07,3.346466375059333e-08,1.880000000000001e-07,1.8,1.880000000000001e-07,0,1.880000000000001e-07,0,1.880000000000001e-07,0,1.880000000000001e-07,0,1.880000000000001e-07,0.015625,1.880000000000001e-07,0.02611111111112147
1.920000000000001e-07,1.799989307311216,1.920000000000001e-07,1.8,1.920000000000001e-07,0,1.920000000000001e-07,0,1.920000000000001e-07,0,1.920000000000001e-07,0,1.920000000000001e-07,0.015625,1.920000000000001e-07,0.02666666666667388
1.960000000000001e-07,0.0002637274736565112,1.960000000000001e-07,1.8,1.960000000000001e-07,0,1.960000000000001e-07,0,1.960000000000001e-07,0,1.960000000000001e-07,0,1.960000000000001e-07,0.015625,1.960000000000001e-07,0.02722222222223105
2.000000000000001e-07,-9.21301602613357e-09,2.000000000000001e-07,1.8,2.000000000000001e-07,0,2.000000000000001e-07,0,2.000000000000001e-07,0,2.000000000000001e-07,0,2.000000000000001e-07,0.015625,2.000000000000001e-07,0.02777777777777778
2.040000000000002e-07,1.799995084415323,2.040000000000002e-07,1.8,2.040000000000002e-07,0,2.040000000000002e-07,0,2.040000000000002e-07,0,2.040000000000002e-07,0,2.040000000000002e-07,0.015625,2.040000000000002e-07,0.0283333333333386
2.080000000000002e-07,1.895322252718576e-08,2.080000000000002e-07,1.8,2.080000000000002e-07,0,2.080000000000002e-07,0,2.080000000000002e-07,0,2.080000000000002e-07,0,2.080000000000002e-07,0.015625,2.080000000000002e-07,0.02888888888889292
2.120000000000002e-07,1.799989246244377,2.120000000000002e-07,1.8,2.120000000000002e-07,0,2.120000000000002e-07,0,2.120000000000002e-07,0,2.120000000000002e-07,0,2.120000000000002e-07,0.015625,2.120000000000002e-07,0.02944444444445399
2.160000000000002e-07,0.0002797097466383556,2.160000000000002e-07,1.8,2.160000000000002e-07,0,2.160000000000002e-07,0,2.160000000000002e-07,0,2.160000000000002e-07,0,2.160000000000002e-07,0.015625,2.160000000000002e-07,0.03000000000000308
2.200000000000002e-07,-2.642046455792481e-08,2.200000000000002e-07,1.8,2.200000000000002e-07,0,2.200000000000002e-07,0,2.200000000000002e-07,0,2.200000000000002e-07,0,2.200000000000002e-07,0.015625,2.200000000000002e-07,0.03055555555555556
2.240000000000002e-07,1.799994956652215,2.240000000000002e-07,1.8,2.240000000000002e-07,0,2.240000000000002e-07,0,2.240000000000002e-07,0,2.240000000000002e-07,0,2.240000000000002e-07,0.015625,2.240000000000002e-07,0.03111111111111776
2.280000000000002e-07,5.364673457448157e-08,2.280000000000002e-07,1.8,2.280000000000002e-07,0,2.280000000000002e-07,0,2.280000000000002e-07,0,2.280000000000002e-07,0,2.280000000000002e-07,0.015625,2.280000000000002e-07,0.03166666666667119
2.320000000000002e-07,1.799990937298389,2.320000000000002e-07,1.8,2.320000000000002e-07,0,2.320000000000002e-07,0,2.320000000000002e-07,0,2.320000000000002e-07,0,2.320000000000002e-07,0.015625,2.320000000000002e-07,0.03222222222222392
2.360000000000002e-07,0.0001428709861979517,2.360000000000002e-07,1.8,2.360000000000002e-07,0,2.360000000000002e-07,0,2.360000000000002e-07,0,2.360000000000002e-07,0,2.360000000000002e-07,0.015625,2.360000000000002e-07,0.03277777777778357
2.400000000000002e-07,-8.397841590005997e-08,2.400000000000002e-07,1.8,2.400000000000002e-07,0,2.400000000000002e-07,0,2.400000000000002e-07,0,2.400000000000002e-07,0,2.400000000000002e-07,0.015625,2.400000000000002e-07,0.03333333333333333
2.440000000000002e-07,1.79999482354612,2.440000000000002e-07,1.8,2.440000000000002e-07,0,2.440000000000002e-07,0,2.440000000000002e-07,0,2.440000000000002e-07,0,2.440000000000002e-07,0.015625,2.440000000000002e-07,0.03388888888890022
2.480000000000002e-07,1.452668392770263e-08,2.480000000000002e-07,1.8,2.480000000000002e-07,0,2.480000000000002e-07,0,2.480000000000002e-07,0,2.480000000000002e-07,0,2.480000000000002e-07,0.015625,2.480000000000002e-07,0.03444444444445437
2.520000000000002e-07,1.799989194018884,2.520000000000002e-07,1.8,2.520000000000002e-07,0,2.520000000000002e-07,0,2.520000000000002e-07,0,2.520000000000002e-07,0,2.520000000000002e-07,0.015625,2.520000000000002e-07,0.03500000000000655
2.560000000000002e-07,0.0002938765251904979,2.560000000000002e-07,1.8,2.560000000000002e-07,0,2.560000000000002e-07,0,2.560000000000002e-07,0,2.560000000000002e-07,0,2.560000000000002e-07,0.015625,2.560000000000002e-07,0.03555555555556626
2.600000000000002e-07,-2.094224820228539e-08,2.600000000000002e-07,1.8,2.600000000000002e-07,0,2.600000000000002e-07,0,2.600000000000002e-07,0,2.600000000000002e-07,0,2.600000000000002e-07,0.015625,2.600000000000002e-07,0.03611111111111111
2.640000000000001e-07,1.799995112766303,2.640000000000001e-07,1.8,2.640000000000001e-07,0,2.640000000000001e-07,0,2.640000000000001e-07,0,2.640000000000001e-07,0,2.640000000000001e-07,0.015625,2.640000000000001e-07,0.03666666666666681
2.680000000000001e-07,2.846454282755801e-08,2.680000000000001e-07,1.8,2.680000000000001e-07,0,2.680000000000001e-07,0,2.680000000000001e-07,0,2.680000000000001e-07,0,2.680000000000001e-07,0.015625,2.680000000000001e-07,0.03722222222222412
2.720000000000001e-07,1.799989369529357,2.720000000000001e-07,1.8,2.720000000000001e-07,0,2.720000000000001e-07,0,2.720000000000001e-07,0,2.720000000000001e-07,0,2.720000000000001e-07,0.015625,2.720000000000001e-07,0.03777777777778545
2.760000000000001e-07,0.0002823707968656355,2.760000000000001e-07,1.8,2.760000000000001e-07,0,2.760000000000001e-07,0,2.760000000000001e-07,0,2.760000000000001e-07,0,2.760000000000001e-07,0.015625,2.760000000000001e-07,0.03833333333334186
2.800000000000001e-07,-3.295558742916524e-08,2.800000000000001e-07,1.8,2.800000000000001e-07,0,2.800000000000001e-07,0,2.800000000000001e-07,0,2.800000000000001e-07,0,2.800000000000001e-07,0.015625,2.800000000000001e-07,0.0388888888888889
2.840000000000001e-07,1.799994961203379,2.840000000000001e-07,0,2.840000000000001e-07,1.8,2.840000000000001e-07,0,2.840000000000001e-07,0,2.840000000000001e-07,0,2.840000000000001e-07,0.03125,2.840000000000001e-07,0.03944444444445313
2.88e-07,4.907888325357787e-08,2.88e-07,0,2.88e-07,1.8,2.88e-07,0,2.88e-07,0,2.88e-07,0,2.88e-07,0.03125,2.88e-07,0.04000000000000573
2.92e-07,1.799989396672659,2.92e-07,0,2.92e-07,1.8,2.92e-07,0,2.92e-07,0,2.92e-07,0,2.92e-07,0.03125,2.92e-07,0.0405555555555659
2.96e-07,-7.678377496045787e-05,2.96e-07,0,2.96e-07,1.8,2.96e-07,0,2.96e-07,0,2.96e-07,0,2.96e-07,0.03125,2.96e-07,0.04111111111112124
3e-07,7.955085443402367e-08,3e-07,0,3e-07,1.8,3e-07,0,3e-07,0,3e-07,0,3e-07,0.03125,3e-07,0.04166666666666667
3.04e-07,1.799995033062455,3.04e-07,0,3.04e-07,1.8,3.04e-07,0,3.04e-07,0,3.04e-07,0,3.04e-07,0.03125,3.04e-07,0.04222222222223126
3.08e-07,1.298756556997437e-10,3.08e-07,0,3.08e-07,1.8,3.08e-07,0,3.08e-07,0,3.08e-07,0,3.08e-07,0.03125,3.08e-07,0.04277777777778876
3.119999999999999e-07,1.799988850687686,3.119999999999999e-07,0,3.119999999999999e-07,1.8,3.119999999999999e-07,0,3.119999999999999e-07,0,3.119999999999999e-07,0,3.119999999999999e-07,0.03125,3.119999999999999e-07,0.04333333333333891
3.159999999999999e-07,0.0002213369159457729,3.159999999999999e-07,0,3.159999999999999e-07,1.8,3.159999999999999e-07,0,3.159999999999999e-07,0,3.159999999999999e-07,0,3.159999999999999e-07,0.03125,3.159999999999999e-07,0.04388888888889467
3.199999999999999e-07,-3.528009895667895e-08,3.199999999999999e-07,0,3.199999999999999e-07,1.8,3.199999999999999e-07,0,3.199999999999999e-07,0,3.199999999999999e-07,0,3.199999999999999e-07,0.03125,3.199999999999999e-07,0.04444444444444445
3.239999999999999e-07,1.799995007087297,3.239999999999999e-07,0,3.239999999999999e-07,1.8,3.239999999999999e-07,0,3.239999999999999e-07,0,3.239999999999999e-07,0,3.239999999999999e-07,0.03125,3.239999999999999e-07,0.04500000000001236
3.279999999999999e-07,1.196104030218711e-09,3.279999999999999e-07,0,3.279999999999999e-07,1.8,3.279999999999999e-07,0,3.279999999999999e-07,0,3.279999999999999e-07,0,3.279999999999999e-07,0.03125,3.279999999999999e-07,0.04555555555555632
3.319999999999998e-07,1.799989373380267,3.319999999999998e-07,0,3.319999999999998e-07,1.8,3.319999999999998e-07,0,3.319999999999998e-07,0,3.319999999999998e-07,0,3.319999999999998e-07,0.03125,3.319999999999998e-07,0.04611111111111421
3.359999999999998e-07,0.0002722086924484568,3.359999999999998e-07,0,3.359999999999998e-07,1.8,3.359999999999998e-07,0,3.359999999999998e-07,0,3.359999999999998e-07,0,3.359999999999998e-07,0.03125,3.359999999999998e-07,0.04666666666667201
3.399999999999998e-07,-6.060908839423628e-08,3.399999999999998e-07,0,3.399999999999998e-07,1.8,3.399999999999998e-07,0,3.399999999999998e-07,0,3.399999999999998e-07,0,3.399999999999998e-07,0.03125,3.399999999999998e-07,0.04722222222222223
3.439999999999998e-07,1.799995147007663,3.439999999999998e-07,0,3.439999999999998e-07,1.8,3.439999999999998e-07,0,3.439999999999998e-07,0,3.439999999999998e-07,0,3.439999999999998e-07,0.03125,3.439999999999998e-07,0.04777777777778758
3.479999999999998e-07,6.20776921988525e-08,3.479999999999998e-07,0,3.479999999999998e-07,1.8,3.479999999999998e-07,0,3.479999999999998e-07,0,3.479999999999998e-07,0,3.479999999999998e-07,0.03125,3.479999999999998e-07,0.04833333333334092
3.519999999999998e-07,1.799989610586423,3.519999999999998e-07,0,3.519999999999998e-07,1.8,3.519999999999998e-07,0,3.519999999999998e-07,0,3.519999999999998e-07,0,3.519999999999998e-07,0.03125,3.519999999999998e-07,0.04888888888890162
3.559999999999997e-07,0.0002723998547085775,3.559999999999997e-07,0,3.559999999999997e-07,1.8,3.559999999999997e-07,0,3.559999999999997e-07,0,3.559999999999997e-07,0,3.559999999999997e-07,0.03125,3.559999999999997e-07,0.04944444444444877
3.599999999999997e-07,7.086972644882191e-08,3.599999999999997e-07,0,3.599999999999997e-07,1.8,3.599999999999997e-07,0,3.599999999999997e-07,0,3.599999999999997e-07,0,3.599999999999997e-07,0.03125,3.599999999999997e-07,0.05
3.639999999999997e-07,1.799994993073424,3.639999999999997e-07,0,3.639999999999997e-07,1.8,3.639999999999997e-07,0,3.639999999999997e-07,0,3.639999999999997e-07,0,3.639999999999997e-07,0.03125,3.639999999999997e-07,0.05055555555555741
3.679999999999997e-07,2.668070719517718e-08,3.679999999999997e-07,0,3.679999999999997e-07,1.8,3.679999999999997e-07,0,3.679999999999997e-07,0,3.679999999999997e-07,0,3.679999999999997e-07,0.03125,3.679999999999997e-07,0.05111111111112182
3.719999999999997e-07,1.799991626587243,3.719999999999997e-07,0,3.719999999999997e-07,1.8,3.719999999999997e-07,0,3.719999999999997e-07,0,3.719999999999997e-07,0,3.719999999999997e-07,0.03125,3.719999999999997e-07,0.05166666666667896
3.759999999999997e-07,0.0001489724039329738,3.759999999999997e-07,0,3.759999999999997e-07,1.8,3.759999999999997e-07,0,3.759999999999997e-07,0,3.759999999999997e-07,0,3.759999999999997e-07,0.03125,3.759999999999997e-07,0.05222222222222747
3.799999999999996e-07,-8.97624367382615e-08,3.799999999999996e-07,0,3.799999999999996e-07,1.8,3.799999999999996e-07,0,3.799999999999996e-07,0,3.799999999999996e-07,0,3.799999999999996e-07,0.03125,3.799999999999996e-07,0.05277777777777778
3.839999999999996e-07,1.799994795474211,3.839999999999996e-07,0,3.839999999999996e-07,1.8,3.839999999999996e-07,0,3.839999999999996e-07,0,3.839999999999996e-07,0,3.839999999999996e-07,0.03125,3.839999999999996e-07,0.0533333333333411
3.879999999999996e-07,1.676656830258205e-08,3.879999999999996e-07,0,3.879999999999996e-07,1.8,3.879999999999996e-07,0,3.879999999999996e-07,0,3.879999999999996e-07,0,3.879999999999996e-07,0.03125,3.879999999999996e-07,0.05388888888889775
3.919999999999996e-07,1.799989310295043,3.919999999999996e-07,0,3.919999999999996e-07,1.8,3.919999999999996e-07,0,3.919999999999996e-07,0,3.919999999999996e-07,0,3.919999999999996e-07,0.03125,3.919999999999996e-07,0.05444444444445597
3.959999999999996e-07,0.0002811882939793527,3.959999999999996e-07,0,3.959999999999996e-07,1.8,3.959999999999996e-07,0,3.959999999999996e-07,0,3.959999999999996e-07,0,3.959999999999996e-07,0.03125,3.959999999999996e-07,0.05500000000000356
