/CLK X,/CLK Y,/outn X,/outn Y
0,7.754459848977965e-10,0,0.4860319065829626
4.183625023031262e-12,0.003048888960411114,4.183625023031262e-12,0.4861640414432479
5.440740809987234e-12,0.00307297893285359,5.440740809987234e-12,0.4861609504089006
7.954972383899178e-12,0.0005145367267407142,7.954972383899178e-12,0.4860332772491358
1e-11,-0.005592589067288933,1e-11,0.4857492608100791
1.038530279319098e-11,-0.007556928110671598,1.038530279319098e-11,0.4856595063555676
1.105485600207967e-11,-0.01087396665105156,1.105485600207967e-11,0.485510537534719
1.162790393501637e-11,-0.01355575521255605,1.162790393501637e-11,0.485393614811075
1.277399980088978e-11,-0.01859359440033061,1.277399980088978e-11,0.4851810955689003
1.506619153263659e-11,-0.02804583229876755,1.506619153263659e-11,0.4848030528623841
1.862256751541893e-11,-0.04148943865764366,1.862256751541893e-11,0.4843112126265197
2.258628911412514e-11,-0.04788358663123982,2.258628911412514e-11,0.4841849097410181
2.809504582040706e-11,-0.02683910733954138,2.809504582040706e-11,0.4852972255458922
3.399357896328321e-11,0.04707833816242649,3.399357896328321e-11,0.4886920336155448
3.886416024424747e-11,0.1418045968833553,3.886416024424747e-11,0.4934508386367809
4.461020844106846e-11,0.2661762074791411,4.461020844106846e-11,0.5029430723263197
4.897878065104909e-11,0.3525813280232382,4.897878065104909e-11,0.5148314069395493
5.407240282698593e-11,0.442172043386099,5.407240282698593e-11,0.5289424571902009
6.021965266824184e-11,0.5428975513924271,6.021965266824184e-11,0.5373368033455451
6.835903934412562e-11,0.6702361551928082,6.835903934412562e-11,0.5246835290907123
7.867276206771369e-11,0.8237829936563069,7.867276206771369e-11,0.4656209110381279
9.295620331846308e-11,1.017888961757518,9.295620331846308e-11,0.3233644892112356
1.069228151908948e-10,1.173786144645417,1.069228151908948e-10,0.1848181536952997
1.169191888346726e-10,1.268100587543933,1.169191888346726e-10,0.111253105659506
1.286895274300286e-10,1.364791351101373,1.286895274300286e-10,0.05461050344803665
1.415331907043983e-10,1.453972941939031,1.415331907043983e-10,0.03014875385356343
1.48478512914571e-10,1.487799592719041,1.48478512914571e-10,0.02347718579514012
1.558794645971554e-10,1.518597805032978,1.558794645971554e-10,0.01873989019637765
1.636988781378461e-10,1.55127726497366,1.636988781378461e-10,0.01660843847185921
1.735031874398441e-10,1.591886863271864,1.735031874398441e-10,0.01573872237928818
1.830463620269714e-10,1.628596099081372,1.830463620269714e-10,0.01508563893355761
1.938471999846884e-10,1.664579990110971,1.938471999846884e-10,0.01372809339462877
2.060544964254309e-10,1.697601637394531,2.060544964254309e-10,0.01160399181197596
2.214250764760166e-10,1.728876868026538,2.214250764760166e-10,0.008772340002183023
2.41079164140283e-10,1.755973536928339,2.41079164140283e-10,0.005731701594984146
2.682389201338489e-10,1.777797708186839,2.682389201338489e-10,0.002970259999505534
3.033738777865063e-10,1.791154577838618,3.033738777865063e-10,0.001189774376024248
3.440147733513614e-10,1.797048315978193,3.440147733513614e-10,0.0003941042610301625
3.940553354363083e-10,1.79929118882558,3.940553354363083e-10,9.196054570593647e-05
4.470276677181542e-10,1.799830086856052,4.470276677181542e-10,1.854034652799179e-05
5e-10,1.79994165233168,5e-10,3.981765162812845e-06
6.059446645636918e-10,1.799976897595859,6.059446645636918e-10,2.078513770044387e-06
8.178339936910753e-10,1.799974900257873,8.178339936910753e-10,9.184797701402626e-06
1e-09,1.799979118806894,1e-09,1.353599190596783e-05
1.25e-09,1.799979633675551,1.25e-09,-4.846847875843335e-05
1.5e-09,1.79998318792478,1.5e-09,-0.0001259520224073633
2.000000000000001e-09,1.799982454357542,2.000000000000001e-09,-6.877973360253808e-05
2.5e-09,1.799988073707226,2.5e-09,5.58317220913289e-06
3e-09,1.799993039286344,3e-09,-6.592806353031643e-05
3.5e-09,1.799981988381319,3.5e-09,-3.190132601327115e-05
4e-09,1.799994144882226,4e-09,-0.0001331151454834379
4.500000000000001e-09,1.799990058794512,4.500000000000001e-09,-7.805823491552501e-05
5.000000000000001e-09,1.800000087440252,5.000000000000001e-09,-6.965826955692561e-06
5.01e-09,1.799999696107705,5.01e-09,-1.334088634400932e-05
5.01063358999641e-09,1.799372430742843,5.01063358999641e-09,-0.0002404574448807929
5.011634495140806e-09,1.798440654413045,5.011634495140806e-09,-0.0005612183336890148
5.013091060123408e-09,1.797142816800013,5.013091060123408e-09,-0.0009533571252675424
5.016004190088612e-09,1.795034771731045,5.016004190088612e-09,-0.001421628342909536
5.018002095044306e-09,1.79476272548393,5.018002095044306e-09,-0.001258939301957511
5.02e-09,1.795972368172091,5.02e-09,-0.0006068825779813587
5.020417976765631e-09,1.796897521347213,5.020417976765631e-09,-0.0002401677663719384
5.021061379718019e-09,1.798325644393208,5.021061379718019e-09,0.0002433260624494386
5.021630782039272e-09,1.7995743305436,5.021630782039272e-09,0.0006034729899677763
5.022769586681777e-09,1.802117268112552,5.022769586681777e-09,0.001290139049041378
5.025047195966789e-09,1.807020795477532,5.025047195966789e-09,0.002440687354657501
5.029602414536811e-09,1.816014626596351,5.029602414536811e-09,0.003997786913842534
5.037190304661012e-09,1.827572277566641,5.037190304661012e-09,0.004812000058761075
5.044725704507307e-09,1.82201404653006,5.044725704507307e-09,0.001247717088049647
5.052985641905278e-09,1.777033643174404,5.052985641905278e-09,-0.01147403023835985
5.061896799380374e-09,1.67292164479032,5.061896799380374e-09,-0.03200941299755874
5.073839945155454e-09,1.45162094871133,5.073839945155454e-09,-0.06282128642287427
5.085739861203148e-09,1.174119306761603,5.085739861203148e-09,-0.09054765867416241
5.096235165942365e-09,0.9103930523230511,5.096235165942365e-09,-0.1128982277001055
5.107106764948658e-09,0.636222685101489,5.107106764948658e-09,-0.1371419550640064
5.116780587685717e-09,0.4114383820692111,5.116780587685717e-09,-0.157472269087952
5.127927826417789e-09,0.2127218104054228,5.127927826417789e-09,-0.1766872260449246
5.137483171980113e-09,0.1068513643103497,5.137483171980113e-09,-0.1872619667187825
5.147066049587561e-09,0.05133986795376835,5.147066049587561e-09,-0.1916525992421158
5.158004299051619e-09,0.02403425681926166,5.158004299051619e-09,-0.1932367395557858
5.168540507874715e-09,0.01374226841567981,5.168540507874715e-09,-0.1933397097101211
5.180122512185447e-09,0.008643109879935952,5.180122512185447e-09,-0.1927929749004353
5.194852750385219e-09,0.00529039015924191,5.194852750385219e-09,-0.1916545075270625
5.212954181177677e-09,0.003306248996761302,5.212954181177677e-09,-0.1899034213183063
5.234494281450607e-09,0.002431266333541282,5.234494281450607e-09,-0.1875853303756105
5.261372429787447e-09,0.001882277370055805,5.261372429787447e-09,-0.1845561184812457
5.295286458718749e-09,0.001531476636139591,5.295286458718749e-09,-0.1794928394442386
5.332614662431884e-09,0.001411113283541216,5.332614662431884e-09,-0.1677830280429099
5.375076907661486e-09,0.001493398653233403,5.375076907661486e-09,-0.1438014521958982
5.448084460294043e-09,0.001611275024088686,5.448084460294043e-09,-0.05415790097049435
5.500000000000001e-09,0.001247349890270193,5.500000000000001e-09,0.05879173238244955
5.574171950717857e-09,0.001124238852062994,5.574171950717857e-09,0.2555169432244899
5.635895699265175e-09,0.0007117157023018522,5.635895699265175e-09,0.3893327918417659
5.684522219761739e-09,0.000417166781928751,5.684522219761739e-09,0.4517404997578973
5.738701650278739e-09,0.0001706757712258465,5.738701650278739e-09,0.4873714168754267
5.81135135657327e-09,4.839476716802913e-05,5.81135135657327e-09,0.5213220055746647
5.866965341236359e-09,-1.568509028761694e-05,5.866965341236359e-09,0.5583186310050431
5.931558273764702e-09,-0.0001732787818579746,5.931558273764702e-09,0.6275787257274894
5.965779136882352e-09,-0.000289296506404337,5.965779136882352e-09,0.6792607439210716
6.000000000000002e-09,-0.000198830212348657,6.000000000000002e-09,0.7399875736127057
6.034509544954392e-09,2.063288599364262e-05,6.034509544954392e-09,0.8122401768286719
6.071301859118812e-09,0.0001726067932733928,6.071301859118812e-09,0.8998169733855059
6.120724747030347e-09,0.0002460347966796473,6.120724747030347e-09,1.021874373762486
6.165345048650576e-09,0.0002577039385473325,6.165345048650576e-09,1.12870997977106
6.22808581097882e-09,0.0002350488007192859,6.22808581097882e-09,1.264121981558713
6.307685217675607e-09,0.0001985197526340916,6.307685217675607e-09,1.406078297543173
6.403842608837805e-09,0.0001627371863460185,6.403842608837805e-09,1.534170918034
6.500000000000002e-09,0.0001321202564747123,6.500000000000002e-09,1.623021588285548
6.640000208454503e-09,7.759048280844041e-05,6.640000208454503e-09,1.704658148247994
6.770097950556271e-09,4.814400774568813e-05,6.770097950556271e-09,1.747023651655623
6.885048975278137e-09,2.718266389874097e-05,6.885048975278137e-09,1.768697360746363
7.000000000000002e-09,1.774222547578777e-05,7.000000000000002e-09,1.781722572287679
7.191022460413113e-09,7.118972728719932e-06,7.191022460413113e-09,1.793046619472829
7.345511230206558e-09,4.628705527014807e-06,7.345511230206558e-09,1.796902870230854
7.500000000000003e-09,1.724175713729021e-06,7.500000000000003e-09,1.798772776703209
7.750000000000003e-09,3.307517225282558e-07,7.750000000000003e-09,1.799854027608713
8.000000000000002e-09,-8.853549057199537e-07,8.000000000000002e-09,1.799810294747541
8.5e-09,1.346244487877432e-06,8.5e-09,1.799328100713882
9.000000000000001e-09,-1.149680223991384e-06,9.000000000000001e-09,1.799528512788211
9.500000000000001e-09,6.621360029390435e-07,9.500000000000001e-09,1.799965107327945
1e-08,-3.795504823937224e-08,1e-08,1.799855046110686
1.000426596353176e-08,0.002952154608743983,1.000426596353176e-08,1.799964259776952
1.000713298176588e-08,0.002323206893226706,1.000713298176588e-08,1.799924265284371
1.001e-08,-0.005207024871436058,1.001e-08,1.799605139624317
1.001041998694617e-08,-0.007347706659825321,1.001041998694617e-08,1.799518733084387
1.001118091671547e-08,-0.01110350631131681,1.001118091671547e-08,1.79937258576896
1.001187359571032e-08,-0.01430625912132731,1.001187359571032e-08,1.79925469974127
1.001325895370001e-08,-0.02028073112762524,1.001325895370001e-08,1.799049018494536
1.00160296696794e-08,-0.03160822572919529,1.00160296696794e-08,1.798698669590514
1.001949242097061e-08,-0.04369885202331696,1.001949242097061e-08,1.798389482009671
1.002425472027043e-08,-0.04581715478671042,1.002425472027043e-08,1.79854142005275
1.002990054999693e-08,-0.01035087851517201,1.002990054999693e-08,1.800035466198389
1.003505539539321e-08,0.06468958862735084,1.003505539539321e-08,1.803002436722234
1.003987635026029e-08,0.1614351316137893,1.003987635026029e-08,1.807354998712035
1.004397683063734e-08,0.2500162620200069,1.004397683063734e-08,1.813446909821264
1.004825434599305e-08,0.3356886148548056,1.004825434599305e-08,1.823905154183469
1.005319468799215e-08,0.4233280096852406,1.005319468799215e-08,1.837731956213168
1.005957268701296e-08,0.5273628933466464,1.005957268701296e-08,1.848696899159829
1.006763572424431e-08,0.6521642301059947,1.006763572424431e-08,1.841751879830777
1.007778664090612e-08,0.8020237810771469,1.007778664090612e-08,1.794970123644146
1.009128182573184e-08,0.9884015532639679,1.009128182573184e-08,1.665682211604205
1.010680679626557e-08,1.178768837923129,1.010680679626557e-08,1.417595811805882
1.012149274184757e-08,1.326366451971504,1.012149274184757e-08,1.094474849398179
1.013203506317512e-08,1.408824551876567,1.013203506317512e-08,0.8204897851468261
1.013940076442365e-08,1.456776564427341,1.013940076442365e-08,0.6253819259001089
1.014860068274307e-08,1.500555749452943,1.014860068274307e-08,0.4161647970752819
1.015517149805349e-08,1.520876078653845,1.015517149805349e-08,0.3016881580497528
1.016168978570404e-08,1.540763066045167,1.016168978570404e-08,0.2135840794817271
1.017090813010975e-08,1.572646904895642,1.017090813010975e-08,0.1258959125826674
1.017972229566014e-08,1.605410894208971,1.017972229566014e-08,0.07727035013362221
1.018928622421435e-08,1.639343262058608,1.018928622421435e-08,0.04756328688411342
1.019965737988476e-08,1.671717988145664,1.019965737988476e-08,0.02978441657243195
1.021216143333919e-08,1.703647419257865,1.021216143333919e-08,0.01821813497464383
1.022762426583787e-08,1.733288911151194,1.022762426583787e-08,0.01083369266762397
1.024783573371987e-08,1.759335046799257,1.024783573371987e-08,0.006005233692415753
1.027542189770526e-08,1.779733374857596,1.027542189770526e-08,0.002924292049012346
1.031137455451784e-08,1.79211315767223,1.031137455451784e-08,0.001224622264624269
1.035286337623242e-08,1.797448615384023,1.035286337623242e-08,0.0005588452281577502
1.040448614284034e-08,1.799423101816393,1.040448614284034e-08,0.0002982325530380121
1.045224307142017e-08,1.799835176438005,1.045224307142017e-08,0.0002661152773195259
1.05e-08,1.799938080511819,1.05e-08,0.0002650732993654692
1.059551385715966e-08,1.799978265631396,1.059551385715966e-08,0.0002634068844824081
1.078654157147897e-08,1.799976320353566,1.078654157147897e-08,0.0002435504532313283
1.1e-08,1.799981487344084,1.1e-08,0.0002321915289830539
1.125e-08,1.799976416865767,1.125e-08,9.756203063346174e-05
1.15e-08,1.799982180821335,1.15e-08,-5.176833434653418e-05
1.2e-08,1.79999000132735,1.2e-08,0.0001609673601284872
1.25e-08,1.799986370512095,1.25e-08,7.310787300121796e-05
1.3e-08,1.799984824860784,1.3e-08,-0.0001157167444631114
1.35e-08,1.7999910980246,1.35e-08,-8.090353075111543e-05
1.4e-08,1.79999971077506,1.4e-08,0.000107610082607993
1.45e-08,1.799983926820524,1.45e-08,-1.240952162395118e-05
1.5e-08,1.799996549119485,1.5e-08,-5.460391306640403e-05
1.501e-08,1.799996406073739,1.501e-08,-4.573903356731933e-05
1.501063358999641e-08,1.799365659626062,1.501063358999641e-08,-0.0002731869004815348
1.501163449514081e-08,1.798434732283359,1.501163449514081e-08,-0.0005926813090964225
1.501309106012341e-08,1.797137956137399,1.501309106012341e-08,-0.0009823072917856043
1.501600419008862e-08,1.795031262511813,1.501600419008862e-08,-0.001446744612062317
1.501800209504431e-08,1.79475969796705,1.501800209504431e-08,-0.001282140155755292
1.502e-08,1.795969640001517,1.502e-08,-0.0006285540506462283
1.502041796907919e-08,1.796894812565963,1.502041796907919e-08,-0.0002615893392490429
1.502106137097573e-08,1.798322790409987,1.502106137097573e-08,0.000227282427931967
1.502163077215073e-08,1.799571383476714,1.502163077215073e-08,0.0005873967645369473
1.502276957450072e-08,1.802114030239958,1.502276957450072e-08,0.001273976707351437
1.502504717920071e-08,1.80701738194176,1.502504717920071e-08,0.002424522939485527
1.502960238860068e-08,1.816011136733003,1.502960238860068e-08,0.003981782687461768
1.503719107497152e-08,1.827570222762114,1.503719107497152e-08,0.004796342329558165
1.50447265325541e-08,1.822012377951123,1.50447265325541e-08,0.001232261566327609
1.505298636716372e-08,1.777034931881108,1.505298636716372e-08,-0.01149264168038257
1.50618976931707e-08,1.6729234231284,1.50618976931707e-08,-0.03202547017924563
1.507384004270536e-08,1.451640884464839,1.507384004270536e-08,-0.06283568425430133
1.508574004742515e-08,1.17414221737892,1.508574004742515e-08,-0.09056431112756996
1.509623503909592e-08,0.9104242524097074,1.509623503909592e-08,-0.1129173074605866
1.510710706700163e-08,0.6362344600923953,1.510710706700163e-08,-0.1371672702555594
1.511678165011441e-08,0.4114181173182399,1.511678165011441e-08,-0.1575058965559926
1.51279290094362e-08,0.212703177831073,1.51279290094362e-08,-0.1767279565519082
1.513748222571898e-08,0.1068695037986911,1.513748222571898e-08,-0.1873072781872411
1.514706570663279e-08,0.05135314498917916,1.514706570663279e-08,-0.1917059693671481
1.515800575121377e-08,0.0240377823702816,1.515800575121377e-08,-0.1932962963982213
1.516854266693411e-08,0.01374279056811437,1.516854266693411e-08,-0.1934043508229746
1.518012674414268e-08,0.008642524148238871,1.518012674414268e-08,-0.1928628064066645
1.519485788842594e-08,0.00529073042801419,1.519485788842594e-08,-0.1917305314255543
1.521296263304238e-08,0.003305320009307395,1.521296263304238e-08,-0.1899864205746965
1.52345081962753e-08,0.002430798326673351,1.52345081962753e-08,-0.1876757153307228
1.526139472757522e-08,0.001882192896074148,1.526139472757522e-08,-0.1846575310009644
1.52953049552217e-08,0.001531697188847628,1.52953049552217e-08,-0.1796364179848348
1.533261410288583e-08,0.00141170578263847,1.533261410288583e-08,-0.1679601909671428
1.537501272278196e-08,0.001494374410994431,1.537501272278196e-08,-0.143967123698782
1.544793742316567e-08,0.001613717003645825,1.544793742316567e-08,-0.05421341130236253
1.55e-08,0.001249108442230607,1.55e-08,0.05939094215011995
1.557415166289615e-08,0.001124586170608059,1.557415166289615e-08,0.2565021280952083
1.563570756393005e-08,0.0007130212087848148,1.563570756393005e-08,0.3901784460271617
1.568429962140599e-08,0.0004169338839861041,1.568429962140599e-08,0.4529707337812056
1.573823073436518e-08,0.0001711973523758192,1.573823073436518e-08,0.4894297666019195
1.581026878925961e-08,4.633291287531371e-05,1.581026878925961e-08,0.5258241551931281
1.586551568301497e-08,-2.585151845397354e-05,1.586551568301497e-08,0.5658452549657148
1.592972267592308e-08,-0.0002037236479326485,1.592972267592308e-08,0.6391848256145054
1.596486133796154e-08,-0.0002884010299777775,1.596486133796154e-08,0.6951025350194814
1.6e-08,-0.0001360648211698159,1.6e-08,0.7602028492437792
1.603294459141078e-08,6.84177072698129e-05,1.603294459141078e-08,0.8323613850445292
1.607781319589545e-08,0.0002092009746977836,1.607781319589545e-08,0.9411525781514387
1.61213207986737e-08,0.0002542720031561088,1.61213207986737e-08,1.048759358393662
1.617126869998664e-08,0.0002519120694908943,1.617126869998664e-08,1.165731308410418
1.623504047545967e-08,0.0002295207980686985,1.623504047545967e-08,1.298143988362083
1.632634161134064e-08,0.0001864053048501196,1.632634161134064e-08,1.449848032348057
1.641317080567032e-08,0.000158180625533732,1.641317080567032e-08,1.555400318307963
1.65e-08,0.000127141144433965,1.65e-08,1.630859614821856
1.663287837544443e-08,7.685686941638106e-05,1.663287837544443e-08,1.705898701538147
1.676405696259507e-08,4.713008695027473e-05,1.676405696259507e-08,1.747923140354831
1.688202848129754e-08,2.662390981939022e-05,1.688202848129754e-08,1.769563859146673
1.7e-08,1.680539332256888e-05,1.7e-08,1.782334189597581
1.719264643272938e-08,5.884937822222386e-06,1.719264643272938e-08,1.793073012904585
1.734632321636469e-08,2.986500531353495e-06,1.734632321636469e-08,1.796625143331845
1.75e-08,8.816120900706576e-07,1.75e-08,1.798307904735966
1.775e-08,1.134651761583317e-06,1.775e-08,1.799545244104374
1.8e-08,7.102217968175218e-08,1.8e-08,1.800130460958915
1.85e-08,-1.441763019302443e-07,1.85e-08,1.80010844522525
1.9e-08,1.252607206321472e-07,1.9e-08,1.799858824120127
1.950000000000001e-08,7.783909391292659e-07,1.950000000000001e-08,1.800293855261088
2e-08,-1.392045677572088e-06,2e-08,1.799853736711523
2.000426596353176e-08,0.002950758301286147,2.000426596353176e-08,1.799951443633618
2.000713298176588e-08,0.002321979994775015,2.000713298176588e-08,1.799909448726908
2.001e-08,-0.005209267091324962,2.001e-08,1.799596449527103
2.001041998685852e-08,-0.007349976863121453,2.001041998685852e-08,1.799511967036222
2.001118091652196e-08,-0.01110598875037114,2.001118091652196e-08,1.79936263488039
2.001187359549961e-08,-0.01430888129144548,2.001187359549961e-08,1.799239895620011
2.001325895345492e-08,-0.02028348353018425,2.001325895345492e-08,1.799025413493687
2.001602966936552e-08,-0.03161094922295356,2.001602966936552e-08,1.798662931183826
2.001949243061791e-08,-0.04370140037991115,2.001949243061791e-08,1.798346563701402
2.00242547579827e-08,-0.04581918700636411,2.00242547579827e-08,1.798498582472477
2.002990061820533e-08,-0.01035000712888546,2.002990061820533e-08,1.799986944875928
2.003505543429031e-08,0.0646915222693366,2.003505543429031e-08,1.802950113257904
2.00398764239221e-08,0.1614395053672417,2.00398764239221e-08,1.807299970747452
