/CLK X,/CLK Y,/outn X,/outn Y
0,7.754459848977965e-10,0,0.4860789829671288
4.183625023031262e-12,0.003048888531448996,4.183625023031262e-12,0.4862111294495663
5.440740810138177e-12,0.003072978406118476,5.440740810138177e-12,0.4862080413332563
7.954972384352008e-12,0.0005145360695986887,7.954972384352008e-12,0.4860803731054775
1e-11,-0.005592589792762221,1e-11,0.4857963576030183
1.038530279317246e-11,-0.007556928835213016,1.038530279317246e-11,0.4857066022596362
1.105485600199909e-11,-0.01087396737021445,1.105485600199909e-11,0.4855576314317808
1.162790393485635e-11,-0.01355575592486596,1.162790393485635e-11,0.485440705968002
1.277399980057086e-11,-0.01859359510856566,1.277399980057086e-11,0.4852281779432244
1.506619153199988e-11,-0.02804583302505337,1.506619153199988e-11,0.4848501113862387
1.862256751318766e-11,-0.04148943939626423,1.862256751318766e-11,0.484358234662875
2.258628911024721e-11,-0.04788358735562118,2.258628911024721e-11,0.4842319061724393
2.809504581519077e-11,-0.02683910801987791,2.809504581519077e-11,0.4853442603482931
3.399357895993023e-11,0.04707833765274591,3.399357895993023e-11,0.4887392244972219
3.886416024118865e-11,0.1418045966742304,3.886416024118865e-11,0.493498212912271
4.461020843974185e-11,0.2661762088313446,4.461020843974185e-11,0.5029905266068067
4.897878065449992e-11,0.3525813292354463,4.897878065449992e-11,0.514878672359905
5.40724028029539e-11,0.4421720438562275,5.40724028029539e-11,0.528989455914572
6.021965269757475e-11,0.5428975529760613,6.021965269757475e-11,0.5373837982381303
6.83591553493252e-11,0.6702379313179859,6.83591553493252e-11,0.5247310348956202
7.867303059197943e-11,0.8237868748075169,7.867303059197943e-11,0.4656699827656724
9.295653390517846e-11,1.017893128840921,9.295653390517846e-11,0.3234249328221143
1.069240207076931e-10,1.173798361250243,1.069240207076931e-10,0.1849078876191007
1.169210777451561e-10,1.268117259418812,1.169210777451561e-10,0.1113316661662307
1.286994992840211e-10,1.364867496891173,1.286994992840211e-10,0.05461134882420769
1.41545833953472e-10,1.454047511412083,1.41545833953472e-10,0.03003559219146752
1.484969464197192e-10,1.487881432934665,1.484969464197192e-10,0.02338712431871135
1.559055374672593e-10,1.518706918202885,1.559055374672593e-10,0.01867570628410781
1.637554438060281e-10,1.551514753351513,1.637554438060281e-10,0.01656254843075532
1.735648378509384e-10,1.592135768492184,1.735648378509384e-10,0.01571220977562472
1.831148242023389e-10,1.628844157859507,1.831148242023389e-10,0.0150647887767686
1.939237880241613e-10,1.664812534796113,1.939237880241613e-10,0.01370793459561916
2.061514444765078e-10,1.697833248809089,2.061514444765078e-10,0.01158161628065931
2.215576574305059e-10,1.729103910154829,2.215576574305059e-10,0.008747225983529418
2.412714819825236e-10,1.756183409641636,2.412714819825236e-10,0.005705832343093004
2.685352241825242e-10,1.777967609933861,2.685352241825242e-10,0.002947921711008617
3.036999124049458e-10,1.791230724217204,3.036999124049458e-10,0.001179500109033146
3.444087857702843e-10,1.797080300917702,3.444087857702843e-10,0.000389793081115018
3.945426943223094e-10,1.79930124942704,3.945426943223094e-10,9.059811479971694e-05
4.472713471611547e-10,1.799830621114785,4.472713471611547e-10,1.846350726875112e-05
5e-10,1.799941455489299,5e-10,4.009005398247301e-06
6.054573056776907e-10,1.79997684006169,6.054573056776907e-10,2.067727213217181e-06
8.163719170330719e-10,1.799974919219236,8.163719170330719e-10,9.14035322391504e-06
1e-09,1.799979118103117,1e-09,1.35334604367785e-05
1.25e-09,1.799979646564498,1.25e-09,-4.846856672685243e-05
1.5e-09,1.799983190606573,1.5e-09,-0.0001259544546563128
2.000000000000001e-09,1.799982463299902,2.000000000000001e-09,-6.877884921399136e-05
2.5e-09,1.7999880481397,2.5e-09,5.581046010335461e-06
3e-09,1.799993122079413,3e-09,-6.592568470200458e-05
3.5e-09,1.799981934887848,3.5e-09,-3.190629501669868e-05
4e-09,1.799994177183902,4e-09,-0.0001331095841827383
4.500000000000001e-09,1.799990034793622,4.500000000000001e-09,-7.80653402899382e-05
5.000000000000001e-09,1.800000102942912,5.000000000000001e-09,-6.958822458681777e-06
5.01e-09,1.79999970837311,5.01e-09,-1.333763863970849e-05
5.010633589996394e-09,1.799372452265154,5.010633589996394e-09,-0.0002404523712223182
5.011634495140757e-09,1.798440675492613,5.011634495140757e-09,-0.0005611801600471432
5.013091060123332e-09,1.797142830224208,5.013091060123332e-09,-0.0009533236987149851
5.016004190088481e-09,1.795034778078901,5.016004190088481e-09,-0.001421603574149709
5.01800209504424e-09,1.794762727683679,5.01800209504424e-09,-0.001258925979137703
5.02e-09,1.795972365698256,5.02e-09,-0.0006068856956046891
5.020417976767535e-09,1.796897517453775,5.020417976767535e-09,-0.0002401773839320905
5.021061379720186e-09,1.798325631380697,5.021061379720186e-09,0.0002433133613508099
5.021630782041724e-09,1.799574310409065,5.021630782041724e-09,0.0006034539850245875
5.022769586684798e-09,1.802117234243189,5.022769586684798e-09,0.001290109050337449
5.025047195970948e-09,1.80702074229018,5.025047195970948e-09,0.002440643803254389
5.029602414543246e-09,1.816014549673479,5.029602414543246e-09,0.003997736771171019
5.037190311885968e-09,1.827572190194606,5.037190311885968e-09,0.004811967236139506
5.044725710976171e-09,1.822013944926577,5.044725710976171e-09,0.001247730895585329
5.052985650844352e-09,1.777033515700882,5.052985650844352e-09,-0.01147388668919686
5.061896808263274e-09,1.6729215059584,5.061896808263274e-09,-0.03200919622283756
5.073839954225274e-09,1.451620861701682,5.073839954225274e-09,-0.0628210083461639
5.085739861323469e-09,1.174119591085566,5.085739861323469e-09,-0.09054726184235373
5.096235164666424e-09,0.9103934241781083,5.096235164666424e-09,-0.1128980492492776
5.107106784607134e-09,0.636222357622399,5.107106784607134e-09,-0.1371428273572038
5.116780636861274e-09,0.4114370031711801,5.116780636861274e-09,-0.1574745190162003
5.127927894043294e-09,0.212720294092438,5.127927894043294e-09,-0.1766901989507676
5.137483181197517e-09,0.1068511269664244,5.137483181197517e-09,-0.1872642974191971
5.147066154343935e-09,0.05133945031003292,5.147066154343935e-09,-0.1916534489227085
5.15800452129957e-09,0.02403386783132009,5.15800452129957e-09,-0.1932349462258306
5.168540742885225e-09,0.01374206520512006,5.168540742885225e-09,-0.1933345090749964
5.18012282711249e-09,0.008642989283315746,5.18012282711249e-09,-0.1927832305237816
5.194853142055986e-09,0.00529036382746693,5.194853142055986e-09,-0.1916382519537859
5.21295478839712e-09,0.003306138034051137,5.21295478839712e-09,-0.18987868788548
5.234495121306885e-09,0.002431260656387884,5.234495121306885e-09,-0.1875498339214385
5.261373843153656e-09,0.001882273968744107,5.261373843153656e-09,-0.1844921167005009
5.29537503613912e-09,0.001530806016536549,5.29537503613912e-09,-0.1791706831914983
5.332873005994637e-09,0.001410915349281406,5.332873005994637e-09,-0.1670110566391128
5.375489489569539e-09,0.001494477718926392,5.375489489569539e-09,-0.1428304255958358
5.449324586331044e-09,0.001610509556010996,5.449324586331044e-09,-0.0522835315974491
5.500000000000001e-09,0.001245055232352237,5.500000000000001e-09,0.05697087551691415
5.574629971836512e-09,0.001124392701136028,5.574629971836512e-09,0.2523865217459771
5.636469259537993e-09,0.0007070791480164249,5.636469259537993e-09,0.384404866009901
5.685281936095173e-09,0.0004137430817106581,5.685281936095173e-09,0.4435585093101892
5.741063989606064e-09,0.0001653556852093917,5.741063989606064e-09,0.4722282929799758
5.817597381330345e-09,5.283594239900081e-05,5.817597381330345e-09,0.4833949930154905
5.876971688454425e-09,2.574447971323688e-05,5.876971688454425e-09,0.4865041828668681
5.938485844227213e-09,8.073592920359561e-06,5.938485844227213e-09,0.4890641694848317
6.000000000000002e-09,5.289054109462531e-06,6.000000000000002e-09,0.493640643840471
6.123028311545578e-09,-1.650482791457384e-05,6.123028311545578e-09,0.5351027615528888
6.216019603573264e-09,-0.0001590309320550915,6.216019603573264e-09,0.6212260095853132
6.288953401041736e-09,-0.0002434578550624262,6.288953401041736e-09,0.7402018190197606
6.325229223053526e-09,-1.862106753280284e-05,6.325229223053526e-09,0.8133894739263626
6.366819330143734e-09,0.0001847774509399802,6.366819330143734e-09,0.911960993964618
6.421082225774573e-09,0.0002490286725868664,6.421082225774573e-09,1.045745243870616
6.46476585003703e-09,0.0002532328561921965,6.46476585003703e-09,1.148761012776205
6.500000000000002e-09,0.0002426294358677896,6.500000000000002e-09,1.225878744774046
6.570468299925946e-09,0.0002108044195176993,6.570468299925946e-09,1.360245095585816
6.67939890336629e-09,0.0001661889347288161,6.67939890336629e-09,1.517179099919371
6.812748342782064e-09,0.0001253755407741967,6.812748342782064e-09,1.640085188602356
6.906374171391033e-09,8.577011380173113e-05,6.906374171391033e-09,1.693789699168084
7.000000000000002e-09,6.003258611056723e-05,7.000000000000002e-09,1.730077748898325
7.138709315936285e-09,3.494597564394473e-05,7.138709315936285e-09,1.763200597091904
7.299429663959736e-09,1.648679907529844e-05,7.299429663959736e-09,1.78294712898363
7.39971483197987e-09,1.171397782647186e-05,7.39971483197987e-09,1.789416545056788
7.500000000000003e-09,6.497164790407613e-06,7.500000000000003e-09,1.793510630491305
7.700570336040268e-09,2.73952029218766e-06,7.700570336040268e-09,1.797756877744917
8.000000000000002e-09,-7.662796420091855e-07,8.000000000000002e-09,1.7994497648839
8.250000000000001e-09,1.424939566462648e-06,8.250000000000001e-09,1.799447631496631
8.500000000000002e-09,-4.756507851613183e-07,8.500000000000002e-09,1.799314407462393
9.000000000000003e-09,4.672886714670648e-07,9.000000000000003e-09,1.799538727908512
9.500000000000001e-09,-8.483834068662932e-07,9.500000000000001e-09,1.799958176095563
1e-08,1.300733892351119e-06,1e-08,1.799860203083325
1.000426596353166e-08,0.003029588606791847,1.000426596353166e-08,1.799969486914395
1.000713298176583e-08,0.00237171697944784,1.000713298176583e-08,1.799926792927786
1.001e-08,-0.005168742243699293,1.001e-08,1.79960550835585
1.001042029321374e-08,-0.00731227564857725,1.001042029321374e-08,1.799518796518655
1.001118159286722e-08,-0.01107178338657676,1.001118159286722e-08,1.799372163150698
1.001187433194145e-08,-0.01427589379271876,1.001187433194145e-08,1.799253937152382
1.001325981008992e-08,-0.02025132934451908,1.001325981008992e-08,1.799047674722995
1.001603076638685e-08,-0.03157576507951866,1.001603076638685e-08,1.79869643883835
1.001949686615975e-08,-0.04368720370852235,1.001949686615975e-08,1.798385445792774
1.002423673381201e-08,-0.04589562493821348,1.002423673381201e-08,1.798531885433082
1.002988400397592e-08,-0.01068395167612085,1.002988400397592e-08,1.800018430115008
1.003504318563998e-08,0.06420871891320715,1.003504318563998e-08,1.802978384351728
1.00398669042393e-08,0.1609237702046405,1.00398669042393e-08,1.80732294581406
1.004396132913018e-08,0.2493856755747499,1.004396132913018e-08,1.813384995658799
1.004823916703595e-08,0.335134332290993,1.004823916703595e-08,1.823817956016339
1.005317206779826e-08,0.4227040331396284,1.005317206779826e-08,1.837633015808264
1.005954058575509e-08,0.5266275401152882,1.005954058575509e-08,1.848658022382562
1.006759803006068e-08,0.6513771094103775,1.006759803006068e-08,1.84187537304699
1.007772811314838e-08,0.8009765930587603,1.007772811314838e-08,1.795444479786046
1.009119794113315e-08,0.9871087472968554,1.009119794113315e-08,1.666903641949858
1.01066907956503e-08,1.177296504939664,1.01066907956503e-08,1.420080503675252
1.012145350151293e-08,1.325902741293668,1.012145350151293e-08,1.095775798268598
1.01320006656746e-08,1.408482887003365,1.01320006656746e-08,0.8217826754462817
1.013930379903401e-08,1.456115900675433,1.013930379903401e-08,0.6281684489173697
1.014853626465861e-08,1.500292906875815,1.014853626465861e-08,0.4176750365298975
1.015511393065618e-08,1.520665517214709,1.015511393065618e-08,0.3027405249129146
1.016163821483217e-08,1.540545622085834,1.016163821483217e-08,0.2143165560907037
1.017076207310407e-08,1.572063297156471,1.017076207310407e-08,0.1270519448560699
1.017957869257085e-08,1.604828567262373,1.017957869257085e-08,0.07791357568073798
1.018911832584132e-08,1.638729310940647,1.018911832584132e-08,0.04797772534701082
1.019947889813177e-08,1.671164349648645,1.019947889813177e-08,0.03002487362613918
1.021193859779137e-08,1.703111856551836,1.021193859779137e-08,0.0183737892026878
1.022735017644945e-08,1.732823131171084,1.022735017644945e-08,0.01093044552583478
1.024747188810386e-08,1.758951810759112,1.024747188810386e-08,0.006067559637356468
1.027492652133549e-08,1.779466106862059,1.027492652133549e-08,0.002961764985131652
1.031082306212536e-08,1.791994670111988,1.031082306212536e-08,0.001239748184880345
1.035218730870577e-08,1.797399413515435,1.035218730870577e-08,0.0005652855227458852
1.040362605420832e-08,1.799407846778211,1.040362605420832e-08,0.0002999215938289551
1.045181302710416e-08,1.79983375989329,1.045181302710416e-08,0.0002662206152125572
1.05e-08,1.799938317418317,1.05e-08,0.0002650088837483566
1.059637394579168e-08,1.799978444649126,1.059637394579168e-08,0.0002633585487667581
1.078912183737505e-08,1.799976291062093,1.078912183737505e-08,0.0002433274617935912
1.1e-08,1.799981517989587,1.1e-08,0.0002322088874583075
1.125e-08,1.799976398095453,1.125e-08,9.754340813667421e-05
1.15e-08,1.79998219209052,1.15e-08,-5.17537295634816e-05
1.2e-08,1.799989993315722,1.2e-08,0.0001609518822824627
1.25e-08,1.799986363742387,1.25e-08,7.312137765369802e-05
1.3e-08,1.799984826683571,1.3e-08,-0.0001157303560604448
1.35e-08,1.799991085766897,1.35e-08,-8.089166888066433e-05
1.4e-08,1.799999756392098,1.4e-08,0.0001075995991357891
1.45e-08,1.799983899525703,1.45e-08,-1.240128495131845e-05
1.5e-08,1.799996555647682,1.5e-08,-5.461194301968397e-05
1.501e-08,1.79999641731148,1.501e-08,-4.574146773427508e-05
1.50106335899964e-08,1.799365671918549,1.50106335899964e-08,-0.0002731864712918556
1.501163449514076e-08,1.798434755723999,1.501163449514076e-08,-0.000592676677016562
1.501309106012333e-08,1.797137997783946,1.501309106012333e-08,-0.0009822892518096663
1.501600419008848e-08,1.795031324065004,1.501600419008848e-08,-0.001446716993247026
1.501800209504424e-08,1.794759766244019,1.501800209504424e-08,-0.001282117852286662
1.502e-08,1.795969710906706,1.502e-08,-0.0006285448317866307
1.502041796907641e-08,1.796894882842894,1.502041796907641e-08,-0.0002615863518074928
1.502106137097257e-08,1.798322859093133,1.502106137097257e-08,0.0002272649412391728
1.502163077214715e-08,1.799571450946003,1.502163077214715e-08,0.0005873760185436065
1.502276957449632e-08,1.802114098418571,1.502276957449632e-08,0.001273951284428633
1.502504717919465e-08,1.807017445776605,1.502504717919465e-08,0.002424490640337706
1.502960238859131e-08,1.81601119431369,1.502960238859131e-08,0.003981749637032781
1.503719104561706e-08,1.82757025653112,1.503719104561706e-08,0.004796330561971627
1.504472650479075e-08,1.822012519415092,1.504472650479075e-08,0.001232317940914677
1.505298632754568e-08,1.777035362827981,1.505298632754568e-08,-0.01149239090800474
1.506189765085518e-08,1.672924252197151,1.506189765085518e-08,-0.0320251027773521
1.507383999136563e-08,1.45164242381872,1.507383999136563e-08,-0.06283494601036788
1.50857400354351e-08,1.174143284535895,1.50857400354351e-08,-0.090563715579558
1.509623503294742e-08,0.9104252759230119,1.509623503294742e-08,-0.1129169995174486
1.510710709446134e-08,0.6362342640802512,1.510710709446134e-08,-0.1371681274977541
1.511678174629067e-08,0.4114157166840512,1.511678174629067e-08,-0.1575082854840225
1.512792911191817e-08,0.2127010080421488,1.512792911191817e-08,-0.1767310464793841
1.513748223327219e-08,0.1068693179036428,1.513748223327219e-08,-0.1873096506661381
1.514706584112845e-08,0.05135267327016324,1.514706584112845e-08,-0.1917068736174669
1.515800614982952e-08,0.02403706014048019,1.515800614982952e-08,-0.193294586500262
1.51685430875494e-08,0.01374238361013811,1.51685430875494e-08,-0.1933992396948528
1.518012731622535e-08,0.008642258811542377,1.518012731622535e-08,-0.1928531659048468
1.51948585648776e-08,0.005290647809522615,1.51948585648776e-08,-0.191714410428819
1.521296375635285e-08,0.003305072558339965,1.521296375635285e-08,-0.1899618437588591
1.52345097676556e-08,0.002430761799761639,1.52345097676556e-08,-0.1876404074461845
1.526139745585362e-08,0.001882158667467368,1.526139745585362e-08,-0.1845938315009378
1.529539515318107e-08,0.001531001069527676,1.529539515318107e-08,-0.1793159189724708
1.533287389037093e-08,0.001411477515526351,1.533287389037093e-08,-0.1671917028261669
1.537546142512413e-08,0.001495516843678558,1.537546142512413e-08,-0.142972779077661
1.544926895712051e-08,0.001612915296581062,1.544926895712051e-08,-0.05217802958532965
1.55e-08,0.0012465803622222,1.55e-08,0.05756471785155427
1.557460932929588e-08,0.001124932184066348,1.557460932929588e-08,0.2533754600630118
1.563630826579516e-08,0.0007081872720341359,1.563630826579516e-08,0.3853280218221212
1.56850902001321e-08,0.0004135881332297353,1.56850902001321e-08,0.4448943248015381
1.57406029977643e-08,0.0001662828130037323,1.57406029977643e-08,0.4745727621880622
1.581625816510889e-08,5.353346891133387e-05,1.581625816510889e-08,0.4895852304025645
1.58748671664325e-08,2.471849034136606e-05,1.58748671664325e-08,0.4993097488586082
1.594650456445694e-08,-1.473900050504325e-06,1.594650456445694e-08,0.521153537619658
1.6e-08,-2.937529701600297e-05,1.6e-08,0.5523598457611193
1.608251154730157e-08,-0.0002060986025307927,1.608251154730157e-08,0.6408319066373209
1.614058504674504e-08,-0.000237830792785947,1.614058504674504e-08,0.7388199679634025
1.61781386004085e-08,9.936115508655901e-06,1.61781386004085e-08,0.8159820890570597
1.621623565469925e-08,0.0001768147317006463,1.621623565469925e-08,0.9067395171140223
1.625793754759553e-08,0.0002392396386264911,1.625793754759553e-08,1.010011877985572
1.630109603194763e-08,0.000256558323711152,1.630109603194763e-08,1.114054048608883
1.636076852696324e-08,0.000240060696479159,1.636076852696324e-08,1.245172706122967
1.644012177750006e-08,0.0002024059649938598,1.644012177750006e-08,1.390683746436479
1.65e-08,0.0001790029087996216,1.65e-08,1.478274014526928
1.661975644499988e-08,0.0001388442953664534,1.661975644499988e-08,1.605707163566814
1.675173149071695e-08,9.05284867600535e-05,1.675173149071695e-08,1.690897798996255
1.688775670479048e-08,5.006685271245463e-05,1.688775670479048e-08,1.740955437299222
1.7e-08,3.369592040382378e-05,1.7e-08,1.764533502496109
1.716238133545147e-08,1.368951266850576e-05,1.716238133545147e-08,1.783514901996649
1.734627197514393e-08,7.394965897259338e-06,1.734627197514393e-08,1.793161817434894
1.75e-08,1.441663096902887e-06,1.75e-08,1.796637032074937
1.778447090640929e-08,2.379953344058157e-06,1.778447090640929e-08,1.799313309956689
1.8e-08,-6.621315938363677e-07,1.8e-08,1.800013767120242
1.825e-08,7.205529749894033e-07,1.825e-08,1.800225498402841
1.85e-08,-9.646525644391084e-07,1.85e-08,1.799985953387878
1.900000000000001e-08,9.157880389365252e-07,1.900000000000001e-08,1.799865470451494
1.950000000000001e-08,4.416086373700204e-08,1.950000000000001e-08,1.800286616134336
2e-08,-6.935904691482325e-07,2e-08,1.799847900179676
2.000426596353166e-08,0.003132750048054153,2.000426596353166e-08,1.799953118770907
2.000713298176583e-08,0.002444946497705116,2.000713298176583e-08,1.799908788236055
2.001e-08,-0.00511553413351271,2.001e-08,1.799594588056753
2.001042028676789e-08,-0.007261753956182611,2.001042028676789e-08,1.799509938948798
2.001118157863754e-08,-0.01102607255421761,2.001118157863754e-08,1.799360168955502
2.00118743164474e-08,-0.01423407680307932,2.00118743164474e-08,1.799237338489011
2.001325979206712e-08,-0.02021612701169077,2.001325979206712e-08,1.799022805801745
2.001603074330657e-08,-0.03155032183584634,2.001603074330657e-08,1.798660575980453
2.001949671658731e-08,-0.04366821894038161,2.001949671658731e-08,1.798343908129258
2.002423762276212e-08,-0.04587725240415606,2.002423762276212e-08,1.798492513929983
