/clk X,/clk Logic,/eoc X,/eoc Logic,/out0 X,/out0 Y,/out1 X,/out1 Y,/out2 X,/out2 Y,/out3 X,/out3 Y,/out4 X,/out4 Y,/SW_inp X,/SW_inp Y,/SAR_out_analog X,/SAR_out_analog Y,/Vin X,/Vin Y
0,0,0,0,0,0,0,0,0,0,0,0,0,0,0,0,0,0,0,0.2
4.6e-11,1,6.5067e-08,1,5.8582467e-12,0,5.8582467e-12,0,5.8582467e-12,0,5.8582467e-12,0,5.8582467e-12,0,5.8582467e-12,1.839419988685024e-06,5.8582467e-12,0,5.8582467e-12,0.2000165638025833
5.067e-09,0,7.506699999999999e-08,0,6.916569e-12,0,6.916569e-12,0,6.916569e-12,0,6.916569e-12,0,6.916569e-12,0,6.916569e-12,2.124216959085088e-06,6.916569e-12,0,6.916569e-12,0.2000195561381094
1.0046e-08,1,1.35067e-07,1,8.458284499999999e-12,0,8.458284499999999e-12,0,8.458284499999999e-12,0,8.458284499999999e-12,0,8.458284499999999e-12,0,8.458284499999999e-12,2.497449652961473e-06,8.458284499999999e-12,0,8.458284499999999e-12,0.2000239152359694
1.5067e-08,0,1.45067e-07,0,9.999999999999999e-12,0,9.999999999999999e-12,0,9.999999999999999e-12,0,9.999999999999999e-12,0,9.999999999999999e-12,0,9.999999999999999e-12,2.79951000172825e-06,9.999999999999999e-12,0,9.999999999999999e-12,0.200028274333822
2.0046e-08,1,2.05067e-07,1,1.02563921e-11,0,1.02563921e-11,0,1.02563921e-11,0,1.02563921e-11,0,1.02563921e-11,0,1.02563921e-11,2.843432723671813e-06,1.02563921e-11,0,1.02563921e-11,0.2000289992654315
2.5067e-08,0,2.15067e-07,0,1.07691763e-11,0,1.07691763e-11,0,1.07691763e-11,0,1.07691763e-11,0,1.07691763e-11,0,1.07691763e-11,2.928566486315971e-06,1.07691763e-11,0,1.07691763e-11,0.2000304491286497
3.0046e-08,1,2.75067e-07,1,1.12332871e-11,0,1.12332871e-11,0,1.12332871e-11,0,1.12332871e-11,0,1.12332871e-11,0,1.12332871e-11,3.001078848686205e-06,1.12332871e-11,0,1.12332871e-11,0.2000317613709781
3.5067e-08,0,2.85067e-07,0,1.21615086e-11,0,1.21615086e-11,0,1.21615086e-11,0,1.21615086e-11,0,1.21615086e-11,0,1.21615086e-11,3.13428204184022e-06,1.21615086e-11,0,1.21615086e-11,0.2000343858556325
4.0046e-08,1,3.45067e-07,1,1.40179518e-11,0,1.40179518e-11,0,1.40179518e-11,0,1.40179518e-11,0,1.40179518e-11,0,1.40179518e-11,3.359589929073698e-06,1.40179518e-11,0,1.40179518e-11,0.2000396348249294
4.5067e-08,0,3.55067e-07,0,1.7053639e-11,0,1.7053639e-11,0,1.7053639e-11,0,1.7053639e-11,0,1.7053639e-11,0,1.7053639e-11,3.634540812379965e-06,1.7053639e-11,0,1.7053639e-11,0.2000482180280132
5.0046e-08,1,4.15067e-07,1,2.10956201e-11,0,2.10956201e-11,0,2.10956201e-11,0,2.10956201e-11,0,2.10956201e-11,0,2.10956201e-11,3.873313955731392e-06,2.10956201e-11,0,2.10956201e-11,0.2000596464603214
5.5067e-08,0,4.25067e-07,0,2.57130798e-11,0,2.57130798e-11,0,2.57130798e-11,0,2.57130798e-11,0,2.57130798e-11,0,2.57130798e-11,4.033598643148844e-06,2.57130798e-11,0,2.57130798e-11,0.2000727020193878
6.004599999999999e-08,1,4.85067e-07,1,3.03009205e-11,0,3.03009205e-11,0,3.03009205e-11,0,3.03009205e-11,0,3.03009205e-11,0,3.03009205e-11,4.123195747021646e-06,3.03009205e-11,0,3.03009205e-11,0.20008567383291
6.5067e-08,0,4.95067e-07,0,3.40926452e-11,0,3.40926452e-11,0,3.40926452e-11,0,3.40926452e-11,0,3.40926452e-11,0,3.40926452e-11,4.16671025335996e-06,3.40926452e-11,0,3.40926452e-11,0.2000963946810991
7.0046e-08,1,5.55067e-07,1,3.82762074e-11,0,3.82762074e-11,0,3.82762074e-11,0,3.82762074e-11,0,3.82762074e-11,0,3.82762074e-11,4.196297396422214e-06,3.82762074e-11,0,3.82762074e-11,0.2001082234234987
7.506699999999999e-08,0,5.650669999999999e-07,0,4.2406636e-11,0,4.2406636e-11,0,4.2406636e-11,0,4.2406636e-11,0,4.2406636e-11,0,4.2406636e-11,4.21382808145427e-06,4.2406636e-11,0,4.2406636e-11,0.2001199019341378
8.0046e-08,1,6.25067e-07,1,4.60802557e-11,0,4.60802557e-11,0,4.60802557e-11,0,4.60802557e-11,0,4.60802557e-11,0,4.60802557e-11,4.223457451822855e-06,4.60802557e-11,0,4.60802557e-11,0.2001302888476774
8.5067e-08,0,6.35067e-07,0,4.95217958e-11,0,4.95217958e-11,0,4.95217958e-11,0,4.95217958e-11,0,4.95217958e-11,0,4.95217958e-11,4.229310045831886e-06,4.95217958e-11,0,4.95217958e-11,0.2001400195715781
9.0046e-08,1,6.95067e-07,1,5.27856543e-11,0,5.27856543e-11,0,5.27856543e-11,0,5.27856543e-11,0,5.27856543e-11,0,5.27856543e-11,4.233015221061362e-06,5.27856543e-11,0,5.27856543e-11,0.2001492479126127
9.5067e-08,0,7.05067e-07,0,5.64361243e-11,0,5.64361243e-11,0,5.64361243e-11,0,5.64361243e-11,0,5.64361243e-11,0,5.64361243e-11,4.235772689875739e-06,5.64361243e-11,0,5.64361243e-11,0.2001595693713459
1.00046e-07,1,7.65067e-07,1,6.129041899999999e-11,0,6.129041899999999e-11,0,6.129041899999999e-11,0,6.129041899999999e-11,0,6.129041899999999e-11,0,6.129041899999999e-11,4.238023057227431e-06,6.129041899999999e-11,0,6.129041899999999e-11,0.2001732945633181
1.05067e-07,0,7.750669999999999e-07,0,6.50914216e-11,0,6.50914216e-11,0,6.50914216e-11,0,6.50914216e-11,0,6.50914216e-11,0,6.50914216e-11,4.239063986060719e-06,6.50914216e-11,0,6.50914216e-11,0.2001840416421294
1.10046e-07,1,8.35067e-07,1,6.981053339999999e-11,0,6.981053339999999e-11,0,6.981053339999999e-11,0,6.981053339999999e-11,0,6.981053339999999e-11,0,6.981053339999999e-11,4.239864728623236e-06,6.981053339999999e-11,0,6.981053339999999e-11,0.2001973846125909
1.15067e-07,0,8.45067e-07,0,7.51198899e-11,0,7.51198899e-11,0,7.51198899e-11,0,7.51198899e-11,0,7.51198899e-11,0,7.51198899e-11,4.240379408327055e-06,7.51198899e-11,0,7.51198899e-11,0.2002123964593786
1.20046e-07,1,9.05067e-07,1,8.20168176e-11,0,8.20168176e-11,0,8.20168176e-11,0,8.20168176e-11,0,8.20168176e-11,0,8.20168176e-11,4.240730611004751e-06,8.20168176e-11,0,8.20168176e-11,0.2002318970552996
1.25067e-07,0,9.15067e-07,0,9.04001394e-11,0,9.04001394e-11,0,9.04001394e-11,0,9.04001394e-11,0,9.04001394e-11,0,9.04001394e-11,4.240928666000473e-06,9.04001394e-11,0,9.04001394e-11,0.2002556003280231
1.30046e-07,1,9.750669999999999e-07,1,1.013453977e-10,0,1.013453977e-10,0,1.013453977e-10,0,1.013453977e-10,0,1.013453977e-10,0,1.013453977e-10,4.241039971404024e-06,1.013453977e-10,0,1.013453977e-10,0.2002865472985112
1.35067e-07,0,9.85067e-07,0,1.158521567e-10,0,1.158521567e-10,0,1.158521567e-10,0,1.158521567e-10,0,1.158521567e-10,0,1.158521567e-10,4.241102106820827e-06,1.158521567e-10,0,1.158521567e-10,0.2003275641622601
1.40046e-07,1,1e-06,0,1.368564951e-10,0,1.368564951e-10,0,1.368564951e-10,0,1.368564951e-10,0,1.368564951e-10,0,1.368564951e-10,4.241143298489863e-06,1.368564951e-10,0,1.368564951e-10,0.2003869524692045
1.45067e-07,0,  ,  ,1.699290833e-10,0,1.699290833e-10,0,1.699290833e-10,0,1.699290833e-10,0,1.699290833e-10,0,1.699290833e-10,4.241173788382751e-06,1.699290833e-10,0,1.699290833e-10,0.200480462868154
1.50046e-07,1,  ,  ,2.325334644e-10,0,2.325334644e-10,0,2.325334644e-10,0,2.325334644e-10,0,2.325334644e-10,0,2.325334644e-10,4.241197860133297e-06,2.325334644e-10,0,2.325334644e-10,0.2006574721233456
1.55067e-07,0,  ,  ,3.577422265e-10,0,3.577422265e-10,0,3.577422265e-10,0,3.577422265e-10,0,3.577422265e-10,0,3.577422265e-10,4.241216698895385e-06,3.577422265e-10,0,3.577422265e-10,0.2010114895561809
1.60046e-07,1,  ,  ,6.081597509e-10,0,6.081597509e-10,0,6.081597509e-10,0,6.081597509e-10,0,6.081597509e-10,0,6.081597509e-10,4.241225843000855e-06,6.081597509e-10,0,6.081597509e-10,0.2017195176270062
1.65067e-07,0,  ,  ,1.1089947995e-09,0,1.1089947995e-09,0,1.1089947995e-09,0,1.1089947995e-09,0,1.1089947995e-09,0,1.1089947995e-09,4.241149992238932e-06,1.1089947995e-09,0,1.1089947995e-09,0.2031355267123394
1.70046e-07,1,  ,  ,2.1106648967e-09,0,2.1106648967e-09,0,2.1106648967e-09,0,2.1106648967e-09,0,2.1106648967e-09,0,2.1106648967e-09,4.240616612505773e-06,2.1106648967e-09,0,2.1106648967e-09,0.205967197650679
1.75067e-07,0,  ,  ,3.5603324483e-09,0,3.5603324483e-09,0,3.5603324483e-09,0,3.5603324483e-09,0,3.5603324483e-09,0,3.5603324483e-09,4.238848312976576e-06,3.5603324483e-09,0,3.5603324483e-09,0.2100638827536767
1.80046e-07,1,  ,  ,5.01e-09,0,5.01e-09,0,5.01e-09,0,5.01e-09,0,5.01e-09,0,5.01e-09,4.235850228619122e-06,5.01e-09,0,5.01e-09,0.2141578626688562
1.85067e-07,0,  ,  ,5.0158625401e-09,0,5.0158625401e-09,0,5.0158625401e-09,0,5.0158625401e-09,0,5.0158625401e-09,0,5.0158625401e-09,4.235807824860261e-06,5.0158625401e-09,0,5.0158625401e-09,0.2141744119775131
1.90046e-07,1,  ,  ,5.02e-09,0,5.02e-09,0,5.02e-09,0,5.02e-09,0,5.02e-09,0,5.02e-09,4.235779077684373e-06,5.02e-09,0,5.02e-09,0.214186091536113
1.95067e-07,0,  ,  ,5.0204216069e-09,0,5.0204216069e-09,0,5.0204216069e-09,0,5.0204216069e-09,0,5.0204216069e-09,0,5.0204216069e-09,4.235776858570114e-06,5.0204216069e-09,0,5.0204216069e-09,0.2141872816807111
2.00046e-07,1,  ,  ,5.0211750117e-09,0,5.0211750117e-09,0,5.0211750117e-09,0,5.0211750117e-09,0,5.0211750117e-09,0,5.0211750117e-09,4.235772899436736e-06,5.0211750117e-09,0,5.0211750117e-09,0.2141894084492149
2.05067e-07,0,  ,  ,5.0220102571e-09,0,5.0220102571e-09,0,5.0220102571e-09,0,5.0220102571e-09,0,5.0220102571e-09,0,5.0220102571e-09,4.235768687864004e-06,5.0220102571e-09,0,5.0220102571e-09,0.2141917662423729
2.10046e-07,1,  ,  ,5.0235062995e-09,0,5.0235062995e-09,0,5.0235062995e-09,0,5.0235062995e-09,0,5.0235062995e-09,0,5.0235062995e-09,4.235761622236218e-06,5.0235062995e-09,0,5.0235062995e-09,0.2141959893795493
2.15067e-07,0,  ,  ,5.0264983843e-09,0,5.0264983843e-09,0,5.0264983843e-09,0,5.0264983843e-09,0,5.0264983843e-09,0,5.0264983843e-09,4.235749056381577e-06,5.0264983843e-09,0,5.0264983843e-09,0.2142044356417089
2.20046e-07,1,  ,  ,5.0312549661e-09,0,5.0312549661e-09,0,5.0312549661e-09,0,5.0312549661e-09,0,5.0312549661e-09,0,5.0312549661e-09,4.235732151244058e-06,5.0312549661e-09,0,5.0312549661e-09,0.2142178628137252
2.25067e-07,0,  ,  ,5.0369462096e-09,0,5.0369462096e-09,0,5.0369462096e-09,0,5.0369462096e-09,0,5.0369462096e-09,0,5.0369462096e-09,4.235714911213637e-06,5.0369462096e-09,0,5.0369462096e-09,0.2142339283518469
2.30046e-07,1,  ,  ,5.0440847531e-09,0,5.0440847531e-09,0,5.0440847531e-09,0,5.0440847531e-09,0,5.0440847531e-09,0,5.0440847531e-09,4.235695537791136e-06,5.0440847531e-09,0,5.0440847531e-09,0.2142540793204396
2.35067e-07,0,  ,  ,5.0497047354e-09,0,5.0497047354e-09,0,5.0497047354e-09,0,5.0497047354e-09,0,5.0497047354e-09,0,5.0497047354e-09,4.235681131254658e-06,5.0497047354e-09,0,5.0497047354e-09,0.2142699435681004
2.40046e-07,1,  ,  ,5.0540549961e-09,0,5.0540549961e-09,0,5.0540549961e-09,0,5.0540549961e-09,0,5.0540549961e-09,0,5.0540549961e-09,4.235670202348377e-06,5.0540549961e-09,0,5.0540549961e-09,0.2142822235692107
2.45067e-07,0,  ,  ,5.0584802301e-09,0,5.0584802301e-09,0,5.0584802301e-09,0,5.0584802301e-09,0,5.0584802301e-09,0,5.0584802301e-09,4.235659184217328e-06,5.0584802301e-09,0,5.0584802301e-09,0.2142947151714011
2.50046e-07,1,  ,  ,5.064595579e-09,0,5.064595579e-09,0,5.064595579e-09,0,5.064595579e-09,0,5.064595579e-09,0,5.064595579e-09,4.235644039146832e-06,5.064595579e-09,0,5.064595579e-09,0.2143119775902287
2.55067e-07,0,  ,  ,5.067305e-09,0,5.067305e-09,0,5.067305e-09,0,5.067305e-09,0,5.067305e-09,0,5.067305e-09,4.235637345174889e-06,5.067305e-09,0,5.067305e-09,0.2143196257271407
2.60046e-07,1,  ,  ,5.0697258913e-09,0,5.0697258913e-09,0,5.0697258913e-09,0,5.0697258913e-09,0,5.0697258913e-09,0,5.0697258913e-09,0.00540552777404041,5.0697258913e-09,0,5.0697258913e-09,0.2143264593929947
2.65067e-07,0,  ,  ,5.0727586554e-09,0,5.0727586554e-09,0,5.0727586554e-09,0,5.0727586554e-09,0,5.0727586554e-09,0,5.0727586554e-09,0.02081111394144769,5.0727586554e-09,0,5.0727586554e-09,0.2143350202317273
2.70046e-07,1,  ,  ,5.0750990088e-09,0,5.0750990088e-09,0,5.0750990088e-09,0,5.0750990088e-09,0,5.0750990088e-09,0,5.0750990088e-09,0.03521094594928783,5.0750990088e-09,0,5.0750990088e-09,0.2143416265327915
2.75067e-07,0,  ,  ,5.0781956075e-09,0,5.0781956075e-09,0,5.0781956075e-09,0,5.0781956075e-09,0,5.0781956075e-09,0,5.0781956075e-09,0.05686667608882702,5.0781956075e-09,0,5.0781956075e-09,0.2143503675319818
2.80046e-07,1,  ,  ,5.0810986691e-09,0,5.0810986691e-09,0,5.0810986691e-09,0,5.0810986691e-09,0,5.0810986691e-09,0,5.0810986691e-09,0.07900025558885782,5.0810986691e-09,0,5.0810986691e-09,0.2143585622037726
2.85067e-07,0,  ,  ,5.0840550925e-09,0,5.0840550925e-09,0,5.0840550925e-09,0,5.0840550925e-09,0,5.0840550925e-09,0,5.0840550925e-09,0.1027799298187265,5.0840550925e-09,0,5.0840550925e-09,0.2143669074874692
2.90046e-07,1,  ,  ,5.0875628188e-09,0,5.0875628188e-09,0,5.0875628188e-09,0,5.0875628188e-09,0,5.0875628188e-09,0,5.0875628188e-09,0.132080672038844,5.0875628188e-09,0,5.0875628188e-09,0.2143768089481053
2.95067e-07,0,  ,  ,5.0922156708e-09,0,5.0922156708e-09,0,5.0922156708e-09,0,5.0922156708e-09,0,5.0922156708e-09,0,5.0922156708e-09,0.1721051825350024,5.0922156708e-09,0,5.0922156708e-09,0.2143899427857291
3.00046e-07,1,  ,  ,5.0983361824e-09,0,5.0983361824e-09,0,5.0983361824e-09,0,5.0983361824e-09,0,5.0983361824e-09,0,5.0983361824e-09,0.2259057205626135,5.0983361824e-09,0,5.0983361824e-09,0.2144072193989054
3.05067e-07,0,  ,  ,5.1072951753e-09,0,5.1072951753e-09,0,5.1072951753e-09,0,5.1072951753e-09,0,5.1072951753e-09,0,5.1072951753e-09,0.3057484903369798,5.1072951753e-09,0,5.1072951753e-09,0.2144325081825105
3.10046e-07,1,  ,  ,5.1181311202e-09,0,5.1181311202e-09,0,5.1181311202e-09,0,5.1181311202e-09,0,5.1181311202e-09,0,5.1181311202e-09,0.4029381982121591,5.1181311202e-09,0,5.1181311202e-09,0.2144630948893643
3.15067e-07,0,  ,  ,5.1299944989e-09,0,5.1299944989e-09,0,5.1299944989e-09,0,5.1299944989e-09,0,5.1299944989e-09,0,5.1299944989e-09,0.5094466495555772,5.1299944989e-09,0,5.1299944989e-09,0.2144965814929401
3.20046e-07,1,  ,  ,5.1435190421e-09,0,5.1435190421e-09,0,5.1435190421e-09,0,5.1435190421e-09,0,5.1435190421e-09,0,5.1435190421e-09,0.6308493423247599,5.1435190421e-09,0,5.1435190421e-09,0.2145347567251546
3.25067e-07,0,  ,  ,5.1597473616e-09,0,5.1597473616e-09,0,5.1597473616e-09,0,5.1597473616e-09,0,5.1597473616e-09,0,5.1597473616e-09,0.7766318840581845,5.1597473616e-09,0,5.1597473616e-09,0.2145805633585753
3.30046e-07,1,  ,  ,5.1638151299e-09,0,5.1638151299e-09,0,5.1638151299e-09,0,5.1638151299e-09,0,5.1638151299e-09,0,5.1638151299e-09,0.813185468860693,5.1638151299e-09,0,5.1638151299e-09,0.2145920451094287
3.35067e-07,0,  ,  ,5.165849014e-09,0,5.165849014e-09,0,5.165849014e-09,0,5.165849014e-09,0,5.165849014e-09,0,5.165849014e-09,0.8314554258164941,5.165849014e-09,0,5.165849014e-09,0.2145977859732754
3.40046e-07,1,  ,  ,5.1699167822e-09,0,5.1699167822e-09,0,5.1699167822e-09,0,5.1699167822e-09,0,5.1699167822e-09,0,5.1699167822e-09,0.8679521875509496,5.1699167822e-09,0,5.1699167822e-09,0.2146092676777936
3.45067e-07,0,  ,  ,5.1704252533e-09,0,5.1704252533e-09,0,5.1704252533e-09,0,5.1704252533e-09,0,5.1704252533e-09,0,5.1704252533e-09,0.8725078788597026,5.1704252533e-09,0,5.1704252533e-09,0.2146107028886849
3.50046e-07,1,  ,  ,5.1706794888e-09,0,5.1706794888e-09,0,5.1706794888e-09,0,5.1706794888e-09,0,5.1706794888e-09,0,5.1706794888e-09,0.8747853331416524,5.1706794888e-09,0,5.1706794888e-09,0.2146114204939493
3.55067e-07,0,  ,  ,5.1708066065e-09,0,5.1708066065e-09,0,5.1708066065e-09,0,5.1708066065e-09,0,5.1708066065e-09,0,5.1708066065e-09,0.8759239614067867,5.1708066065e-09,0,5.1708066065e-09,0.2146117792965362
3.60046e-07,1,  ,  ,5.1708701654e-09,0,5.1708701654e-09,0,5.1708701654e-09,0,5.1708701654e-09,0,5.1708701654e-09,0,5.1708701654e-09,0.876493250866664,5.1708701654e-09,0,5.1708701654e-09,0.2146119586978183
3.65067e-07,0,  ,  ,5.1709972832e-09,0,5.1709972832e-09,0,5.1709972832e-09,0,5.1709972832e-09,0,5.1709972832e-09,0,5.1709972832e-09,0.8776317809733865,5.1709972832e-09,0,5.1709972832e-09,0.2146123175003599
3.70047e-07,1,  ,  ,5.1710131729e-09,0,5.1710131729e-09,0,5.1710131729e-09,0,5.1710131729e-09,0,5.1710131729e-09,0,5.1710131729e-09,0.8777740926070817,5.1710131729e-09,0,5.1710131729e-09,0.2146123623506755
3.75067e-07,0,  ,  ,5.1710449523e-09,0,5.1710449523e-09,0,5.1710449523e-09,0,5.1710449523e-09,0,5.1710449523e-09,0,5.1710449523e-09,0.8780587124130776,5.1710449523e-09,0,5.1710449523e-09,0.2146124520513052
3.80047e-07,1,  ,  ,5.1710489248e-09,0,5.1710489248e-09,0,5.1710489248e-09,0,5.1710489248e-09,0,5.1710489248e-09,0,5.1710489248e-09,0.8780942900972221,5.1710489248e-09,0,5.1710489248e-09,0.2146124632638838
3.85067e-07,0,  ,  ,5.171050911e-09,0,5.171050911e-09,0,5.171050911e-09,0,5.171050911e-09,0,5.171050911e-09,0,5.171050911e-09,0.8781120787151576,5.171050911e-09,0,5.171050911e-09,0.2146124688701731
3.90047e-07,1,  ,  ,5.1710519041e-09,0,5.1710519041e-09,0,5.1710519041e-09,0,5.1710519041e-09,0,5.1710519041e-09,0,5.1710519041e-09,0.8781209730166256,5.1710519041e-09,0,5.1710519041e-09,0.2146124716733177
3.95067e-07,0,  ,  ,5.1710538903e-09,0,5.1710538903e-09,0,5.1710538903e-09,0,5.1710538903e-09,0,5.1710538903e-09,0,5.1710538903e-09,0.8781387616046366,5.1710538903e-09,0,5.1710538903e-09,0.214612477279607
4.00047e-07,1,  ,  ,5.1710541386e-09,0,5.1710541386e-09,0,5.1710541386e-09,0,5.1710541386e-09,0,5.1710541386e-09,0,5.1710541386e-09,0.8781409851973964,5.1710541386e-09,0,5.1710541386e-09,0.2146124779803932
4.05067e-07,0,  ,  ,5.1710546351e-09,0,5.1710546351e-09,0,5.1710546351e-09,0,5.1710546351e-09,0,5.1710546351e-09,0,5.1710546351e-09,0.8781454323375654,5.1710546351e-09,0,5.1710546351e-09,0.2146124793819655
4.10047e-07,1,  ,  ,5.1710556282e-09,0,5.1710556282e-09,0,5.1710556282e-09,0,5.1710556282e-09,0,5.1710556282e-09,0,5.1710556282e-09,0.8781422543031022,5.1710556282e-09,0,5.1710556282e-09,0.2146124821851101
4.15067e-07,0,  ,  ,5.1710561248e-09,0,5.1710561248e-09,0,5.1710561248e-09,0,5.1710561248e-09,0,5.1710561248e-09,0,5.1710561248e-09,0.878134628517077,5.1710561248e-09,0,5.1710561248e-09,0.2146124835866824
4.20047e-07,1,  ,  ,5.1710561403e-09,0,5.1710561403e-09,0,5.1710561403e-09,0,5.1710561403e-09,0,5.1710561403e-09,0,5.1710561403e-09,0.8781343901915875,5.1710561403e-09,0,5.1710561403e-09,0.2146124836304815
4.25067e-07,0,  ,  ,5.1710561423e-09,0,5.1710561423e-09,0,5.1710561423e-09,0,5.1710561423e-09,0,5.1710561423e-09,0,5.1710561423e-09,0.8781343604008088,5.1710561423e-09,0,5.1710561423e-09,0.2146124836359564
4.30047e-07,1,  ,  ,5.1710561432e-09,0,5.1710561432e-09,0,5.1710561432e-09,0,5.1710561432e-09,0,5.1710561432e-09,0,5.1710561432e-09,0.8781343455054186,5.1710561432e-09,0,5.1710561432e-09,0.2146124836386939
4.35067e-07,0,  ,  ,5.1710561437e-09,0,5.1710561437e-09,0,5.1710561437e-09,0,5.1710561437e-09,0,5.1710561437e-09,0,5.1710561437e-09,0.8781343380577219,5.1710561437e-09,0,5.1710561437e-09,0.2146124836400626
4.40047e-07,1,  ,  ,5.1710561447e-09,0,5.1710561447e-09,0,5.1710561447e-09,0,5.1710561447e-09,0,5.1710561447e-09,0,5.1710561447e-09,0.878134323162325,5.1710561447e-09,0,5.1710561447e-09,0.2146124836428001
4.45067e-07,0,  ,  ,5.1710561448e-09,0,5.1710561448e-09,0,5.1710561448e-09,0,5.1710561448e-09,0,5.1710561448e-09,0,5.1710561448e-09,0.8781343213003966,5.1710561448e-09,0,5.1710561448e-09,0.2146124836431422
4.50047e-07,1,  ,  ,5.171056145e-09,0,5.171056145e-09,0,5.171056145e-09,0,5.171056145e-09,0,5.171056145e-09,0,5.171056145e-09,0.8781343175765405,5.171056145e-09,0,5.171056145e-09,0.2146124836438266
4.55067e-07,0,  ,  ,5.1710561451e-09,0,5.1710561451e-09,0,5.1710561451e-09,0,5.1710561451e-09,0,5.1710561451e-09,0,5.1710561451e-09,0.8781343168783292,5.1710561451e-09,0,5.1710561451e-09,0.2146124836439549
4.60047e-07,1,  ,  ,5.1873266856e-09,0,5.1873266856e-09,0,5.1873266856e-09,0,5.1873266856e-09,0,5.1873266856e-09,0,5.1873266856e-09,0.9228272479616095,5.1873266856e-09,0,5.1873266856e-09,0.2146584086147404
4.65067e-07,0,  ,  ,5.1893605031e-09,0,5.1893605031e-09,0,5.1893605031e-09,0,5.1893605031e-09,0,5.1893605031e-09,0,5.1893605031e-09,0.9435693939052539,5.1893605031e-09,0,5.1893605031e-09,0.2146641492012203
4.70047e-07,1,  ,  ,5.1919931878e-09,0,5.1919931878e-09,0,5.1919931878e-09,0,5.1919931878e-09,0,5.1919931878e-09,0,5.1919931878e-09,0.9753029814150512,5.1919931878e-09,0,5.1919931878e-09,0.2146715801187087
4.75067e-07,0,  ,  ,5.1972585571e-09,0,5.1972585571e-09,0,5.1972585571e-09,0,5.1972585571e-09,0,5.1972585571e-09,0,5.1972585571e-09,1.043595727742721,5.1972585571e-09,0,5.1972585571e-09,0.2146864419146576
