/SAR_out_analog X,/SAR_out_analog Y,/Vin X,/Vin Y,/out0 X,/out0 Y,/out1 X,/out1 Y,/out2 X,/out2 Y,/out3 X,/out3 Y,/out4 X,/out4 Y
0,0,0,0,0,0,0,0,0,0,0,0,0,0
5.1e-09,0,5.1e-09,0.0005100000000026951,5.1e-09,0,5.1e-09,0,5.1e-09,0,5.1e-09,0,5.1e-09,0
1.02e-08,0,1.02e-08,0.00102000000000567,1.02e-08,0,1.02e-08,0,1.02e-08,0,1.02e-08,0,1.02e-08,0
1.53e-08,0,1.53e-08,0.001530000000004674,1.53e-08,0,1.53e-08,0,1.53e-08,0,1.53e-08,0,1.53e-08,0
2.04e-08,0,2.04e-08,0.002040000000003408,2.04e-08,0,2.04e-08,0,2.04e-08,0,2.04e-08,0,2.04e-08,0
2.55e-08,0,2.55e-08,0.002550000000003192,2.55e-08,0,2.55e-08,0,2.55e-08,0,2.55e-08,0,2.55e-08,0
3.06e-08,0,3.06e-08,0.003060000000004757,3.06e-08,0,3.06e-08,0,3.06e-08,0,3.06e-08,0,3.06e-08,0
3.57e-08,0,3.57e-08,0.003570000000002413,3.57e-08,0,3.57e-08,0,3.57e-08,0,3.57e-08,0,3.57e-08,0
4.08e-08,0,4.08e-08,0.004080000000002118,4.08e-08,0,4.08e-08,0,4.08e-08,0,4.08e-08,0,4.08e-08,0
4.59e-08,0,4.59e-08,0.004590000000008568,4.59e-08,0,4.59e-08,0,4.59e-08,0,4.59e-08,0,4.59e-08,0
5.1e-08,0,5.1e-08,0.005100000000004833,5.1e-08,0,5.1e-08,0,5.1e-08,0,5.1e-08,0,5.1e-08,0
5.61e-08,0,5.61e-08,0.005610000000002821,5.61e-08,0,5.61e-08,0,5.61e-08,0,5.61e-08,0,5.61e-08,0
6.120000000000001e-08,0,6.120000000000001e-08,0.006120000000002933,6.120000000000001e-08,0,6.120000000000001e-08,0,6.120000000000001e-08,0,6.120000000000001e-08,0,6.120000000000001e-08,0
6.63e-08,0,6.63e-08,0.006630000000000947,6.63e-08,0,6.63e-08,0,6.63e-08,0,6.63e-08,0,6.63e-08,0
7.14e-08,0,7.14e-08,0.007140000000003098,7.14e-08,0,7.14e-08,0,7.14e-08,0,7.14e-08,0,7.14e-08,0
7.65e-08,0,7.65e-08,0.007650000000003092,7.65e-08,0,7.65e-08,0,7.65e-08,0,7.65e-08,0,7.65e-08,0
8.16e-08,0,8.16e-08,0.008160000000007342,8.16e-08,0,8.16e-08,0,8.16e-08,0,8.16e-08,0,8.16e-08,0
8.67e-08,0,8.67e-08,0.008670000000006296,8.67e-08,0,8.67e-08,0,8.67e-08,0,8.67e-08,0,8.67e-08,0
9.18e-08,0,9.18e-08,0.009180000000003656,9.18e-08,0,9.18e-08,0,9.18e-08,0,9.18e-08,0,9.18e-08,0
9.69e-08,0,9.69e-08,0.009690000000008548,9.69e-08,0,9.69e-08,0,9.69e-08,0,9.69e-08,0,9.69e-08,0
1.02e-07,0,1.02e-07,0.01020000000000604,1.02e-07,0,1.02e-07,0,1.02e-07,0,1.02e-07,0,1.02e-07,0
1.071e-07,0,1.071e-07,0.01071000000000679,1.071e-07,0,1.071e-07,0,1.071e-07,0,1.071e-07,0,1.071e-07,0
1.122e-07,0,1.122e-07,0.0112200000000049,1.122e-07,0,1.122e-07,0,1.122e-07,0,1.122e-07,0,1.122e-07,0
1.173e-07,0,1.173e-07,0.01173000000000836,1.173e-07,0,1.173e-07,0,1.173e-07,0,1.173e-07,0,1.173e-07,0
1.224e-07,0,1.224e-07,0.01224000000000592,1.224e-07,0,1.224e-07,0,1.224e-07,0,1.224e-07,0,1.224e-07,0
1.275e-07,0,1.275e-07,0.01275000000000465,1.275e-07,0,1.275e-07,0,1.275e-07,0,1.275e-07,0,1.275e-07,0
1.326e-07,0,1.326e-07,0.01326000000000205,1.326e-07,0,1.326e-07,0,1.326e-07,0,1.326e-07,0,1.326e-07,0
1.377e-07,0,1.377e-07,0.01377000000000451,1.377e-07,0,1.377e-07,0,1.377e-07,0,1.377e-07,0,1.377e-07,0
1.428000000000001e-07,0,1.428000000000001e-07,0.01428000000000571,1.428000000000001e-07,0,1.428000000000001e-07,0,1.428000000000001e-07,0,1.428000000000001e-07,0,1.428000000000001e-07,0
1.479000000000001e-07,0,1.479000000000001e-07,0.01479000000000169,1.479000000000001e-07,0,1.479000000000001e-07,0,1.479000000000001e-07,0,1.479000000000001e-07,0,1.479000000000001e-07,0
1.530000000000001e-07,0,1.530000000000001e-07,0.0153000000000055,1.530000000000001e-07,0,1.530000000000001e-07,0,1.530000000000001e-07,0,1.530000000000001e-07,0,1.530000000000001e-07,0
1.581000000000001e-07,0,1.581000000000001e-07,0.01581000000000421,1.581000000000001e-07,0,1.581000000000001e-07,0,1.581000000000001e-07,0,1.581000000000001e-07,0,1.581000000000001e-07,0
1.632000000000001e-07,0,1.632000000000001e-07,0.01632000000000107,1.632000000000001e-07,0,1.632000000000001e-07,0,1.632000000000001e-07,0,1.632000000000001e-07,0,1.632000000000001e-07,0
1.683000000000001e-07,0,1.683000000000001e-07,0.01683000000000149,1.683000000000001e-07,0,1.683000000000001e-07,0,1.683000000000001e-07,0,1.683000000000001e-07,0,1.683000000000001e-07,0
1.734000000000001e-07,0,1.734000000000001e-07,0.01734000000000058,1.734000000000001e-07,0,1.734000000000001e-07,0,1.734000000000001e-07,0,1.734000000000001e-07,0,1.734000000000001e-07,0
1.785000000000001e-07,0,1.785000000000001e-07,0.01785000000000284,1.785000000000001e-07,0,1.785000000000001e-07,0,1.785000000000001e-07,0,1.785000000000001e-07,0,1.785000000000001e-07,0
1.836000000000002e-07,0,1.836000000000002e-07,0.01836000000000543,1.836000000000002e-07,0,1.836000000000002e-07,0,1.836000000000002e-07,0,1.836000000000002e-07,0,1.836000000000002e-07,0
1.887000000000002e-07,0,1.887000000000002e-07,0.01887000000000647,1.887000000000002e-07,0,1.887000000000002e-07,0,1.887000000000002e-07,0,1.887000000000002e-07,0,1.887000000000002e-07,0
1.938000000000002e-07,0,1.938000000000002e-07,0.01938000000000169,1.938000000000002e-07,0,1.938000000000002e-07,0,1.938000000000002e-07,0,1.938000000000002e-07,0,1.938000000000002e-07,0
1.989000000000002e-07,0,1.989000000000002e-07,0.01989000000000422,1.989000000000002e-07,0,1.989000000000002e-07,0,1.989000000000002e-07,0,1.989000000000002e-07,0,1.989000000000002e-07,0
2.040000000000002e-07,0,2.040000000000002e-07,0.02040000000000426,2.040000000000002e-07,0,2.040000000000002e-07,0,2.040000000000002e-07,0,2.040000000000002e-07,0,2.040000000000002e-07,0
2.091000000000002e-07,0.015625,2.091000000000002e-07,0.0209100000000021,2.091000000000002e-07,1.8,2.091000000000002e-07,0,2.091000000000002e-07,0,2.091000000000002e-07,0,2.091000000000002e-07,0
2.142000000000002e-07,0.015625,2.142000000000002e-07,0.02142000000000302,2.142000000000002e-07,1.8,2.142000000000002e-07,0,2.142000000000002e-07,0,2.142000000000002e-07,0,2.142000000000002e-07,0
2.193000000000002e-07,0.015625,2.193000000000002e-07,0.02193000000000372,2.193000000000002e-07,1.8,2.193000000000002e-07,0,2.193000000000002e-07,0,2.193000000000002e-07,0,2.193000000000002e-07,0
2.244000000000003e-07,0.015625,2.244000000000003e-07,0.02244000000000224,2.244000000000003e-07,1.8,2.244000000000003e-07,0,2.244000000000003e-07,0,2.244000000000003e-07,0,2.244000000000003e-07,0
2.295000000000003e-07,0.015625,2.295000000000003e-07,0.02295000000000144,2.295000000000003e-07,1.8,2.295000000000003e-07,0,2.295000000000003e-07,0,2.295000000000003e-07,0,2.295000000000003e-07,0
2.346000000000003e-07,0.015625,2.346000000000003e-07,0.02346000000000082,2.346000000000003e-07,1.8,2.346000000000003e-07,0,2.346000000000003e-07,0,2.346000000000003e-07,0,2.346000000000003e-07,0
2.397000000000003e-07,0.015625,2.397000000000003e-07,0.02397000000000243,2.397000000000003e-07,1.8,2.397000000000003e-07,0,2.397000000000003e-07,0,2.397000000000003e-07,0,2.397000000000003e-07,0
2.448000000000003e-07,0.015625,2.448000000000003e-07,0.02448000000000099,2.448000000000003e-07,1.8,2.448000000000003e-07,0,2.448000000000003e-07,0,2.448000000000003e-07,0,2.448000000000003e-07,0
2.499000000000003e-07,0.015625,2.499000000000003e-07,0.02499000000000038,2.499000000000003e-07,1.8,2.499000000000003e-07,0,2.499000000000003e-07,0,2.499000000000003e-07,0,2.499000000000003e-07,0
2.550000000000003e-07,0.015625,2.550000000000003e-07,0.02550000000000005,2.550000000000003e-07,1.8,2.550000000000003e-07,0,2.550000000000003e-07,0,2.550000000000003e-07,0,2.550000000000003e-07,0
2.601000000000003e-07,0.015625,2.601000000000003e-07,0.02601000000000699,2.601000000000003e-07,1.8,2.601000000000003e-07,0,2.601000000000003e-07,0,2.601000000000003e-07,0,2.601000000000003e-07,0
2.652000000000003e-07,0.015625,2.652000000000003e-07,0.02652000000000705,2.652000000000003e-07,1.8,2.652000000000003e-07,0,2.652000000000003e-07,0,2.652000000000003e-07,0,2.652000000000003e-07,0
2.703000000000003e-07,0.015625,2.703000000000003e-07,0.02703000000000526,2.703000000000003e-07,1.8,2.703000000000003e-07,0,2.703000000000003e-07,0,2.703000000000003e-07,0,2.703000000000003e-07,0
2.754000000000004e-07,0.015625,2.754000000000004e-07,0.02754000000000419,2.754000000000004e-07,1.8,2.754000000000004e-07,0,2.754000000000004e-07,0,2.754000000000004e-07,0,2.754000000000004e-07,0
2.805000000000004e-07,0.015625,2.805000000000004e-07,0.0280500000000065,2.805000000000004e-07,1.8,2.805000000000004e-07,0,2.805000000000004e-07,0,2.805000000000004e-07,0,2.805000000000004e-07,0
2.856000000000004e-07,0.015625,2.856000000000004e-07,0.02856000000000987,2.856000000000004e-07,1.8,2.856000000000004e-07,0,2.856000000000004e-07,0,2.856000000000004e-07,0,2.856000000000004e-07,0
2.907000000000004e-07,0.015625,2.907000000000004e-07,0.02907000000000537,2.907000000000004e-07,1.8,2.907000000000004e-07,0,2.907000000000004e-07,0,2.907000000000004e-07,0,2.907000000000004e-07,0
2.958000000000004e-07,0.015625,2.958000000000004e-07,0.02958000000000575,2.958000000000004e-07,1.8,2.958000000000004e-07,0,2.958000000000004e-07,0,2.958000000000004e-07,0,2.958000000000004e-07,0
3.009000000000004e-07,0.015625,3.009000000000004e-07,0.03009000000000546,3.009000000000004e-07,1.8,3.009000000000004e-07,0,3.009000000000004e-07,0,3.009000000000004e-07,0,3.009000000000004e-07,0
3.060000000000004e-07,0.015625,3.060000000000004e-07,0.03060000000000593,3.060000000000004e-07,1.8,3.060000000000004e-07,0,3.060000000000004e-07,0,3.060000000000004e-07,0,3.060000000000004e-07,0
3.111000000000004e-07,0.015625,3.111000000000004e-07,0.03111000000000961,3.111000000000004e-07,1.8,3.111000000000004e-07,0,3.111000000000004e-07,0,3.111000000000004e-07,0,3.111000000000004e-07,0
3.162000000000005e-07,0.015625,3.162000000000005e-07,0.03162000000000301,3.162000000000005e-07,1.8,3.162000000000005e-07,0,3.162000000000005e-07,0,3.162000000000005e-07,0,3.162000000000005e-07,0
3.213000000000005e-07,0.015625,3.213000000000005e-07,0.03213000000000583,3.213000000000005e-07,1.8,3.213000000000005e-07,0,3.213000000000005e-07,0,3.213000000000005e-07,0,3.213000000000005e-07,0
3.264000000000005e-07,0.015625,3.264000000000005e-07,0.03264000000000019,3.264000000000005e-07,1.8,3.264000000000005e-07,0,3.264000000000005e-07,0,3.264000000000005e-07,0,3.264000000000005e-07,0
3.315000000000005e-07,0.015625,3.315000000000005e-07,0.03315000000000887,3.315000000000005e-07,1.8,3.315000000000005e-07,0,3.315000000000005e-07,0,3.315000000000005e-07,0,3.315000000000005e-07,0
3.366000000000005e-07,0.015625,3.366000000000005e-07,0.03366000000000152,3.366000000000005e-07,1.8,3.366000000000005e-07,0,3.366000000000005e-07,0,3.366000000000005e-07,0,3.366000000000005e-07,0
3.417000000000005e-07,0.015625,3.417000000000005e-07,0.03417000000000736,3.417000000000005e-07,1.8,3.417000000000005e-07,0,3.417000000000005e-07,0,3.417000000000005e-07,0,3.417000000000005e-07,0
3.468000000000005e-07,0.03125,3.468000000000005e-07,0.03468000000000095,3.468000000000005e-07,0,3.468000000000005e-07,1.8,3.468000000000005e-07,0,3.468000000000005e-07,0,3.468000000000005e-07,0
3.519000000000006e-07,0.03125,3.519000000000006e-07,0.03519000000000963,3.519000000000006e-07,0,3.519000000000006e-07,1.8,3.519000000000006e-07,0,3.519000000000006e-07,0,3.519000000000006e-07,0
3.570000000000006e-07,0.03125,3.570000000000006e-07,0.03570000000000455,3.570000000000006e-07,0,3.570000000000006e-07,1.8,3.570000000000006e-07,0,3.570000000000006e-07,0,3.570000000000006e-07,0
3.621000000000006e-07,0.03125,3.621000000000006e-07,0.03621000000000573,3.621000000000006e-07,0,3.621000000000006e-07,1.8,3.621000000000006e-07,0,3.621000000000006e-07,0,3.621000000000006e-07,0
3.672000000000006e-07,0.03125,3.672000000000006e-07,0.03672000000000804,3.672000000000006e-07,0,3.672000000000006e-07,1.8,3.672000000000006e-07,0,3.672000000000006e-07,0,3.672000000000006e-07,0
3.723000000000006e-07,0.03125,3.723000000000006e-07,0.03723000000000758,3.723000000000006e-07,0,3.723000000000006e-07,1.8,3.723000000000006e-07,0,3.723000000000006e-07,0,3.723000000000006e-07,0
3.774000000000006e-07,0.03125,3.774000000000006e-07,0.03774000000000335,3.774000000000006e-07,0,3.774000000000006e-07,1.8,3.774000000000006e-07,0,3.774000000000006e-07,0,3.774000000000006e-07,0
3.825000000000006e-07,0.03125,3.825000000000006e-07,0.03825000000000141,3.825000000000006e-07,0,3.825000000000006e-07,1.8,3.825000000000006e-07,0,3.825000000000006e-07,0,3.825000000000006e-07,0
3.876000000000006e-07,0.03125,3.876000000000006e-07,0.03876000000000313,3.876000000000006e-07,0,3.876000000000006e-07,1.8,3.876000000000006e-07,0,3.876000000000006e-07,0,3.876000000000006e-07,0
3.927000000000007e-07,0.03125,3.927000000000007e-07,0.03927000000000693,3.927000000000007e-07,0,3.927000000000007e-07,1.8,3.927000000000007e-07,0,3.927000000000007e-07,0,3.927000000000007e-07,0
3.978000000000007e-07,0.03125,3.978000000000007e-07,0.03978000000000732,3.978000000000007e-07,0,3.978000000000007e-07,1.8,3.978000000000007e-07,0,3.978000000000007e-07,0,3.978000000000007e-07,0
4.029000000000007e-07,0.03125,4.029000000000007e-07,0.04029000000000934,4.029000000000007e-07,0,4.029000000000007e-07,1.8,4.029000000000007e-07,0,4.029000000000007e-07,0,4.029000000000007e-07,0
4.080000000000007e-07,0.03125,4.080000000000007e-07,0.04080000000000302,4.080000000000007e-07,0,4.080000000000007e-07,1.8,4.080000000000007e-07,0,4.080000000000007e-07,0,4.080000000000007e-07,0
4.131000000000007e-07,0.03125,4.131000000000007e-07,0.04131000000000757,4.131000000000007e-07,0,4.131000000000007e-07,1.8,4.131000000000007e-07,0,4.131000000000007e-07,0,4.131000000000007e-07,0
4.182000000000007e-07,0.03125,4.182000000000007e-07,0.0418200000000017,4.182000000000007e-07,0,4.182000000000007e-07,1.8,4.182000000000007e-07,0,4.182000000000007e-07,0,4.182000000000007e-07,0
4.233000000000007e-07,0.03125,4.233000000000007e-07,0.04233000000000051,4.233000000000007e-07,0,4.233000000000007e-07,1.8,4.233000000000007e-07,0,4.233000000000007e-07,0,4.233000000000007e-07,0
4.284000000000007e-07,0.03125,4.284000000000007e-07,0.04284000000000485,4.284000000000007e-07,0,4.284000000000007e-07,1.8,4.284000000000007e-07,0,4.284000000000007e-07,0,4.284000000000007e-07,0
4.335000000000008e-07,0.03125,4.335000000000008e-07,0.04335000000000659,4.335000000000008e-07,0,4.335000000000008e-07,1.8,4.335000000000008e-07,0,4.335000000000008e-07,0,4.335000000000008e-07,0
4.386000000000008e-07,0.03125,4.386000000000008e-07,0.04386000000000465,4.386000000000008e-07,0,4.386000000000008e-07,1.8,4.386000000000008e-07,0,4.386000000000008e-07,0,4.386000000000008e-07,0
4.437000000000008e-07,0.03125,4.437000000000008e-07,0.0443700000000052,4.437000000000008e-07,0,4.437000000000008e-07,1.8,4.437000000000008e-07,0,4.437000000000008e-07,0,4.437000000000008e-07,0
4.488000000000008e-07,0.03125,4.488000000000008e-07,0.04488000000000045,4.488000000000008e-07,0,4.488000000000008e-07,1.8,4.488000000000008e-07,0,4.488000000000008e-07,0,4.488000000000008e-07,0
4.539000000000008e-07,0.03125,4.539000000000008e-07,0.04539000000000182,4.539000000000008e-07,0,4.539000000000008e-07,1.8,4.539000000000008e-07,0,4.539000000000008e-07,0,4.539000000000008e-07,0
4.590000000000008e-07,0.03125,4.590000000000008e-07,0.04590000000000089,4.590000000000008e-07,0,4.590000000000008e-07,1.8,4.590000000000008e-07,0,4.590000000000008e-07,0,4.590000000000008e-07,0
4.641000000000008e-07,0.03125,4.641000000000008e-07,0.0464100000000033,4.641000000000008e-07,0,4.641000000000008e-07,1.8,4.641000000000008e-07,0,4.641000000000008e-07,0,4.641000000000008e-07,0
4.692000000000008e-07,0.03125,4.692000000000008e-07,0.04692000000000025,4.692000000000008e-07,0,4.692000000000008e-07,1.8,4.692000000000008e-07,0,4.692000000000008e-07,0,4.692000000000008e-07,0
4.743000000000009e-07,0.03125,4.743000000000009e-07,0.04743000000000294,4.743000000000009e-07,0,4.743000000000009e-07,1.8,4.743000000000009e-07,0,4.743000000000009e-07,0,4.743000000000009e-07,0
4.794000000000009e-07,0.03125,4.794000000000009e-07,0.04794000000000052,4.794000000000009e-07,0,4.794000000000009e-07,1.8,4.794000000000009e-07,0,4.794000000000009e-07,0,4.794000000000009e-07,0
4.845000000000008e-07,0.03125,4.845000000000008e-07,0.04845000000000019,4.845000000000008e-07,0,4.845000000000008e-07,1.8,4.845000000000008e-07,0,4.845000000000008e-07,0,4.845000000000008e-07,0
4.896000000000008e-07,0.03125,4.896000000000008e-07,0.0489600000000021,4.896000000000008e-07,0,4.896000000000008e-07,1.8,4.896000000000008e-07,0,4.896000000000008e-07,0,4.896000000000008e-07,0
4.947000000000007e-07,0.03125,4.947000000000007e-07,0.04947000000000931,4.947000000000007e-07,0,4.947000000000007e-07,1.8,4.947000000000007e-07,0,4.947000000000007e-07,0,4.947000000000007e-07,0
4.998000000000007e-07,0.03125,4.998000000000007e-07,0.04998000000000091,4.998000000000007e-07,0,4.998000000000007e-07,1.8,4.998000000000007e-07,0,4.998000000000007e-07,0,4.998000000000007e-07,0
5.049000000000007e-07,0.03125,5.049000000000007e-07,0.05049000000000991,5.049000000000007e-07,0,5.049000000000007e-07,1.8,5.049000000000007e-07,0,5.049000000000007e-07,0,5.049000000000007e-07,0
5.100000000000006e-07,0.03125,5.100000000000006e-07,0.051,5.100000000000006e-07,0,5.100000000000006e-07,1.8,5.100000000000006e-07,0,5.100000000000006e-07,0,5.100000000000006e-07,0
5.151000000000006e-07,0.03125,5.151000000000006e-07,0.05151000000000291,5.151000000000006e-07,0,5.151000000000006e-07,1.8,5.151000000000006e-07,0,5.151000000000006e-07,0,5.151000000000006e-07,0
5.202000000000005e-07,0.03125,5.202000000000005e-07,0.05202000000000513,5.202000000000005e-07,0,5.202000000000005e-07,1.8,5.202000000000005e-07,0,5.202000000000005e-07,0,5.202000000000005e-07,0
5.253000000000005e-07,0.03125,5.253000000000005e-07,0.05253000000000572,5.253000000000005e-07,0,5.253000000000005e-07,1.8,5.253000000000005e-07,0,5.253000000000005e-07,0,5.253000000000005e-07,0
5.304000000000005e-07,0.03125,5.304000000000005e-07,0.05304000000000405,5.304000000000005e-07,0,5.304000000000005e-07,1.8,5.304000000000005e-07,0,5.304000000000005e-07,0,5.304000000000005e-07,0
5.355000000000004e-07,0.03125,5.355000000000004e-07,0.05355000000000327,5.355000000000004e-07,0,5.355000000000004e-07,1.8,5.355000000000004e-07,0,5.355000000000004e-07,0,5.355000000000004e-07,0
5.406000000000004e-07,0.03125,5.406000000000004e-07,0.05406000000000235,5.406000000000004e-07,0,5.406000000000004e-07,1.8,5.406000000000004e-07,0,5.406000000000004e-07,0,5.406000000000004e-07,0
5.457000000000003e-07,0.03125,5.457000000000003e-07,0.05457000000000505,5.457000000000003e-07,0,5.457000000000003e-07,1.8,5.457000000000003e-07,0,5.457000000000003e-07,0,5.457000000000003e-07,0
5.508000000000003e-07,0.03125,5.508000000000003e-07,0.05508000000000994,5.508000000000003e-07,0,5.508000000000003e-07,1.8,5.508000000000003e-07,0,5.508000000000003e-07,0,5.508000000000003e-07,0
5.559000000000003e-07,0.046875,5.559000000000003e-07,0.05559000000000019,5.559000000000003e-07,1.8,5.559000000000003e-07,1.8,5.559000000000003e-07,0,5.559000000000003e-07,0,5.559000000000003e-07,0
5.610000000000002e-07,0.046875,5.610000000000002e-07,0.05610000000000296,5.610000000000002e-07,1.8,5.610000000000002e-07,1.8,5.610000000000002e-07,0,5.610000000000002e-07,0,5.610000000000002e-07,0
5.661000000000002e-07,0.046875,5.661000000000002e-07,0.05661000000000484,5.661000000000002e-07,1.8,5.661000000000002e-07,1.8,5.661000000000002e-07,0,5.661000000000002e-07,0,5.661000000000002e-07,0
5.712000000000001e-07,0.046875,5.712000000000001e-07,0.0571200000000015,5.712000000000001e-07,1.8,5.712000000000001e-07,1.8,5.712000000000001e-07,0,5.712000000000001e-07,0,5.712000000000001e-07,0
5.763000000000001e-07,0.046875,5.763000000000001e-07,0.05763000000000421,5.763000000000001e-07,1.8,5.763000000000001e-07,1.8,5.763000000000001e-07,0,5.763000000000001e-07,0,5.763000000000001e-07,0
5.814000000000001e-07,0.046875,5.814000000000001e-07,0.05814000000000211,5.814000000000001e-07,1.8,5.814000000000001e-07,1.8,5.814000000000001e-07,0,5.814000000000001e-07,0,5.814000000000001e-07,0
5.865e-07,0.046875,5.865e-07,0.05865000000000958,5.865e-07,1.8,5.865e-07,1.8,5.865e-07,0,5.865e-07,0,5.865e-07,0
5.916e-07,0.046875,5.916e-07,0.05916000000000101,5.916e-07,1.8,5.916e-07,1.8,5.916e-07,0,5.916e-07,0,5.916e-07,0
